Title: *** SPICE deck for cell osc5{sch} from library lab1
Date: Wed Feb 05 16:21:53  2020
Plotname: Transient Analysis
Flags: real
No. Variables: 30
No. Points: 508     
Command: version 1.06.00
Variables:
	0	time	time
	1	net@0	voltage
	2	ring_out	voltage
	3	gnd	voltage
	4	vdd	voltage
	5	net@2	voltage
	6	net@4	voltage
	7	net@6	voltage
	8	M:Xinv@4:Mpmos@1#drain	voltage
	9	M:Xinv@4:Mpmos@1#source	voltage
	10	M:Xinv@3:Mpmos@1#drain	voltage
	11	M:Xinv@3:Mpmos@1#source	voltage
	12	M:Xinv@2:Mpmos@1#drain	voltage
	13	M:Xinv@2:Mpmos@1#source	voltage
	14	M:Xinv@1:Mpmos@1#drain	voltage
	15	M:Xinv@1:Mpmos@1#source	voltage
	16	M:Xinv@0:Mpmos@1#drain	voltage
	17	M:Xinv@0:Mpmos@1#source	voltage
	18	M:Xinv@4:Mnmos@0#drain	voltage
	19	M:Xinv@4:Mnmos@0#source	voltage
	20	M:Xinv@3:Mnmos@0#drain	voltage
	21	M:Xinv@3:Mnmos@0#source	voltage
	22	M:Xinv@2:Mnmos@0#drain	voltage
	23	M:Xinv@2:Mnmos@0#source	voltage
	24	M:Xinv@1:Mnmos@0#drain	voltage
	25	M:Xinv@1:Mnmos@0#source	voltage
	26	M:Xinv@0:Mnmos@0#drain	voltage
	27	M:Xinv@0:Mnmos@0#source	voltage
	28	vgnd#branch	current
	29	vsupply#branch	current
Values:
0		0.000000000000000e+00
	1.521545674158849e+00
	1.521545674158774e+00
	0.000000000000000e+00
	3.300000000000000e+00
	1.521545674157243e+00
	1.521545674193050e+00
	1.521545674158923e+00
	3.299500730292529e+00
	1.522044943872030e+00
	3.299500730292549e+00
	1.522044943872159e+00
	3.299500730292528e+00
	1.522044943906306e+00
	3.299500730292529e+00
	1.522044943870499e+00
	3.299500730292529e+00
	1.522044943872105e+00
	1.520636840179834e+00
	9.088339699312567e-04
	1.520636840179944e+00
	9.088339699699726e-04
	1.520636840214110e+00
	9.088339699311883e-04
	1.520636840178303e+00
	9.088339699310893e-04
	1.520636840179909e+00
	9.088339699310911e-04
	7.751819232199430e-04
	-7.751819232062180e-04
1		1.000000000000000e-13
	1.521545674212522e+00
	1.521545674212378e+00
	0.000000000000000e+00
	3.300000000000000e+00
	1.521545674210925e+00
	1.521545674246681e+00
	1.521545674212236e+00
	3.299500730287371e+00
	1.522044943931434e+00
	3.299500730287397e+00
	1.522044943931285e+00
	3.299500730287376e+00
	1.522044943965743e+00
	3.299500730287378e+00
	1.522044943929985e+00
	3.299500730287376e+00
	1.522044943931581e+00
	1.520636840227691e+00
	9.088339756381755e-04
	1.520636840227527e+00
	9.088339756834889e-04
	1.520636840262000e+00
	9.088339756457614e-04
	1.520636840226242e+00
	9.088339756454871e-04
	1.520636840227838e+00
	9.088339756440503e-04
	7.751819295037072e-04
	-7.751819295062856e-04
2		2.000000000000000e-13
	1.521545674266113e+00
	1.521545674265900e+00
	0.000000000000000e+00
	3.300000000000000e+00
	1.521545674264522e+00
	1.521545674300226e+00
	1.521545674265470e+00
	3.299500730287167e+00
	1.522044943985045e+00
	3.299500730287193e+00
	1.522044943984609e+00
	3.299500730287174e+00
	1.522044944019377e+00
	3.299500730287174e+00
	1.522044943983671e+00
	3.299500730287173e+00
	1.522044943985261e+00
	1.520636840280985e+00
	9.088339759935884e-04
	1.520636840280534e+00
	9.088339760393604e-04
	1.520636840315317e+00
	9.088339760018110e-04
	1.520636840279611e+00
	9.088339760015435e-04
	1.520636840281201e+00
	9.088339759999960e-04
	7.751819297717204e-04
	-7.751819297713295e-04
3		4.000000000000000e-13
	1.521545674371353e+00
	1.521545674371005e+00
	0.000000000000000e+00
	3.300000000000000e+00
	1.521545674369775e+00
	1.521545674405373e+00
	1.521545674370000e+00
	3.299500730287174e+00
	1.522044944090106e+00
	3.299500730287201e+00
	1.522044944089095e+00
	3.299500730287182e+00
	1.522044944124480e+00
	3.299500730287182e+00
	1.522044944088881e+00
	3.299500730287181e+00
	1.522044944090458e+00
	1.520636840385994e+00
	9.088339761103298e-04
	1.520636840384967e+00
	9.088339761567280e-04
	1.520636840420367e+00
	9.088339761193328e-04
	1.520636840384767e+00
	9.088339761190915e-04
	1.520636840386344e+00
	9.088339761174024e-04
	7.751819298127290e-04
	-7.751819298130198e-04
4		8.000000000000000e-13
	1.521545674570534e+00
	1.521545674569942e+00
	0.000000000000000e+00
	3.300000000000000e+00
	1.521545674568971e+00
	1.521545674604363e+00
	1.521545674567762e+00
	3.299500730287243e+00
	1.522044944288953e+00
	3.299500730287271e+00
	1.522044944286766e+00
	3.299500730287251e+00
	1.522044944323379e+00
	3.299500730287251e+00
	1.522044944287986e+00
	3.299500730287250e+00
	1.522044944289549e+00
	1.520636840584772e+00
	9.088339762388892e-04
	1.520636840582569e+00
	9.088339762865766e-04
	1.520636840619197e+00
	9.088339762494644e-04
	1.520636840583803e+00
	9.088339762493091e-04
	1.520636840585366e+00
	9.088339762475778e-04
	7.751819298366353e-04
	-7.751819298370783e-04
5		1.600000000000000e-12
	1.521545674927627e+00
	1.521545674926672e+00
	0.000000000000000e+00
	3.300000000000000e+00
	1.521545674926041e+00
	1.521545674961024e+00
	1.521545674921996e+00
	3.299500730287316e+00
	1.522044944645529e+00
	3.299500730287344e+00
	1.522044944640846e+00
	3.299500730287326e+00
	1.522044944679886e+00
	3.299500730287327e+00
	1.522044944644901e+00
	3.299500730287324e+00
	1.522044944646487e+00
	1.520636840941195e+00
	9.088339765521105e-04
	1.520636840936494e+00
	9.088339766023524e-04
	1.520636840975549e+00
	9.088339765658038e-04
	1.520636840940564e+00
	9.088339765658639e-04
	1.520636840942150e+00
	9.088339765641407e-04
	7.751819299288506e-04
	-7.751819299291022e-04
6		3.200000000000000e-12
	1.521545675503441e+00
	1.521545675502334e+00
	0.000000000000000e+00
	3.300000000000000e+00
	1.521545675501616e+00
	1.521545675535776e+00
	1.521545675492112e+00
	3.299500730287479e+00
	1.522044945220936e+00
	3.299500730287510e+00
	1.522044945210704e+00
	3.299500730287491e+00
	1.522044945254381e+00
	3.299500730287493e+00
	1.522044945220219e+00
	3.299500730287492e+00
	1.522044945222045e+00
	1.520636841516383e+00
	9.088339769812927e-04
	1.520636841506132e+00
	9.088339770359954e-04
	1.520636841549824e+00
	9.088339770006681e-04
	1.520636841515661e+00
	9.088339770013807e-04
	1.520636841517487e+00
	9.088339770005550e-04
	7.751819300327029e-04
	-7.751819300327746e-04
7		6.400000000000000e-12
	1.521545676259604e+00
	1.521545676260753e+00
	0.000000000000000e+00
	3.300000000000000e+00
	1.521545676257000e+00
	1.521545676289747e+00
	1.521545676237658e+00
	3.299500730287651e+00
	1.522044945979028e+00
	3.299500730287686e+00
	1.522044945955920e+00
	3.299500730287669e+00
	1.522044946008020e+00
	3.299500730287670e+00
	1.522044945975272e+00
	3.299500730287674e+00
	1.522044945977877e+00
	1.520636842274164e+00
	9.088339776069439e-04
	1.520636842251034e+00
	9.088339776699211e-04
	1.520636842303148e+00
	9.088339776363117e-04
	1.520636842270399e+00
	9.088339776380376e-04
	1.520636842273003e+00
	9.088339776420453e-04
	7.751819302080522e-04
	-7.751819302080317e-04
8		1.280000000000000e-11
	1.521545676923338e+00
	1.521545676941035e+00
	0.000000000000000e+00
	3.300000000000000e+00
	1.521545676922435e+00
	1.521545676953395e+00
	1.521545676886875e+00
	3.299500730287831e+00
	1.522044946659019e+00
	3.299500730287874e+00
	1.522044946604840e+00
	3.299500730287857e+00
	1.522044946671372e+00
	3.299500730287856e+00
	1.522044946640410e+00
	3.299500730287874e+00
	1.522044946641312e+00
	1.520636842953906e+00
	9.088339780980520e-04
	1.520636842899699e+00
	9.088339781747710e-04
	1.520636842966243e+00
	9.088339781436251e-04
	1.520636842935281e+00
	9.088339781413706e-04
	1.520636842936175e+00
	9.088339781695779e-04
	7.751819303310005e-04
	-7.751819303305652e-04
9		2.280000000000000e-11
	1.521545677117851e+00
	1.521545677197728e+00
	0.000000000000000e+00
	3.300000000000000e+00
	1.521545677148190e+00
	1.521545677168372e+00
	1.521545677085873e+00
	3.299500730287861e+00
	1.522044946915626e+00
	3.299500730287909e+00
	1.522044946803745e+00
	3.299500730287904e+00
	1.522044946886254e+00
	3.299500730287874e+00
	1.522044946866075e+00
	3.299500730287938e+00
	1.522044946835721e+00
	1.520636843210422e+00
	9.088339782828915e-04
	1.520636843098506e+00
	9.088339783728895e-04
	1.520636843181022e+00
	9.088339783584578e-04
	1.520636843160857e+00
	9.088339783117094e-04
	1.520636843130468e+00
	9.088339784182270e-04
	7.751819303935870e-04
	-7.751819303946126e-04
10		3.280000000000000e-11
	1.521545677067281e+00
	1.521545677253899e+00
	0.000000000000000e+00
	3.300000000000000e+00
	1.521545677193286e+00
	1.521545677159960e+00
	1.521545677083575e+00
	3.299500730287878e+00
	1.522044946971796e+00
	3.299500730287914e+00
	1.522044946801443e+00
	3.299500730287953e+00
	1.522044946877830e+00
	3.299500730287853e+00
	1.522044946911177e+00
	3.299500730287986e+00
	1.522044946785131e+00
	1.520636843266604e+00
	9.088339782549699e-04
	1.520636843096219e+00
	9.088339783275461e-04
	1.520636843172590e+00
	9.088339783874552e-04
	1.520636843205994e+00
	9.088339782181462e-04
	1.520636843079865e+00
	9.088339784495234e-04
	7.751819303785378e-04
	-7.751819303781626e-04
11		4.280000000000000e-11
	1.521545676974251e+00
	1.521545677298196e+00
	0.000000000000000e+00
	3.300000000000000e+00
	1.521545677288564e+00
	1.521545677097897e+00
	1.521545677101004e+00
	3.299500730287880e+00
	1.522044947016097e+00
	3.299500730287848e+00
	1.522044946818885e+00
	3.299500730288006e+00
	1.522044946815749e+00
	3.299500730287776e+00
	1.522044947006484e+00
	3.299500730287990e+00
	1.522044946692086e+00
	1.520636843310884e+00
	9.088339783135069e-04
	1.520636843113679e+00
	9.088339782715915e-04
	1.520636843110455e+00
	9.088339785345231e-04
	1.520636843301329e+00
	9.088339781387836e-04
	1.520636842986791e+00
	9.088339785195336e-04
	7.751819303954690e-04
	-7.751819303953845e-04
12		5.279999999999999e-11
	1.521545676863968e+00
	1.521545677301025e+00
	0.000000000000000e+00
	3.300000000000000e+00
	1.521545677460854e+00
	1.521545676937523e+00
	1.521545677196887e+00
	3.299500730287977e+00
	1.522044947018908e+00
	3.299500730287746e+00
	1.522044946914799e+00
	3.299500730288137e+00
	1.522044946655327e+00
	3.299500730287731e+00
	1.522044947178807e+00
	3.299500730287991e+00
	1.522044946581788e+00
	1.520636843313664e+00
	9.088339784184145e-04
	1.520636843209675e+00
	9.088339780408579e-04
	1.520636842949970e+00
	9.088339787108348e-04
	1.520636843473711e+00
	9.088339779948165e-04
	1.520636842876505e+00
	9.088339784750509e-04
	7.751819303787505e-04
	-7.751819303797084e-04
13		6.279999999999999e-11
	1.521545676798472e+00
	1.521545677173176e+00
	0.000000000000000e+00
	3.300000000000000e+00
	1.521545677699469e+00
	1.521545676624173e+00
	1.521545677464619e+00
	3.299500730288162e+00
	1.522044946891008e+00
	3.299500730287514e+00
	1.522044947182611e+00
	3.299500730288264e+00
	1.522044946341908e+00
	3.299500730287700e+00
	1.522044947417462e+00
	3.299500730287860e+00
	1.522044946516309e+00
	1.520636843185633e+00
	9.088339787900109e-04
	1.520636843477612e+00
	9.088339776906295e-04
	1.520636842636438e+00
	9.088339790024972e-04
	1.520636843712379e+00
	9.088339779798164e-04
	1.520636842811074e+00
	9.088339783143913e-04
	7.751819303953216e-04
	-7.751819303954279e-04
14		7.280000000000000e-11
	1.521545676933369e+00
	1.521545676744909e+00
	0.000000000000000e+00
	3.300000000000000e+00
	1.521545677915626e+00
	1.521545676140297e+00
	1.521545678025856e+00
	3.299500730288572e+00
	1.522044946462606e+00
	3.299500730287226e+00
	1.522044947743982e+00
	3.299500730288378e+00
	1.522044945857943e+00
	3.299500730287864e+00
	1.522044947633618e+00
	3.299500730287543e+00
	1.522044946651283e+00
	1.520636842756996e+00
	9.088339794499235e-04
	1.520636844039203e+00
	9.088339771107765e-04
	1.520636842152396e+00
	9.088339791747634e-04
	1.520636843928481e+00
	9.088339781805548e-04
	1.520636842946252e+00
	9.088339777242289e-04
	7.751819303788234e-04
	-7.751819303794537e-04
15		8.280000000000000e-11
	1.521545677578865e+00
	1.521545675765412e+00
	0.000000000000000e+00
	3.300000000000000e+00
	1.521545677852309e+00
	1.521545675593336e+00
	1.521545678970644e+00
	3.299500730289172e+00
	1.522044945482859e+00
	3.299500730286915e+00
	1.522044948688961e+00
	3.299500730288218e+00
	1.522044945310934e+00
	3.299500730288368e+00
	1.522044947570198e+00
	3.299500730286825e+00
	1.522044947297002e+00
	1.520636841776829e+00
	9.088339805808477e-04
	1.520636844984399e+00
	9.088339765760069e-04
	1.520636841605417e+00
	9.088339790053864e-04
	1.520636843864756e+00
	9.088339790835625e-04
	1.520636843592391e+00
	9.088339765321678e-04
	7.751819303954895e-04
	-7.751819303957534e-04
16		9.280000000000001e-11
	1.521545679233991e+00
	1.521545673980595e+00
	0.000000000000000e+00
	3.300000000000000e+00
	1.521545676955708e+00
	1.521545675384766e+00
	1.521545680204694e+00
	3.299500730289911e+00
	1.522044943697653e+00
	3.299500730286966e+00
	1.522044949923176e+00
	3.299500730287460e+00
	1.522044945102478e+00
	3.299500730289605e+00
	1.522044946673242e+00
	3.299500730285642e+00
	1.522044948952582e+00
	1.520636839991111e+00
	9.088339818924971e-04
	1.520636846218694e+00
	9.088339765100581e-04
	1.520636841397383e+00
	9.088339777021037e-04
	1.520636842967078e+00
	9.088339811548303e-04
	1.520636845248759e+00
	9.088339743801572e-04
	7.751819303785613e-04
	-7.751819303778840e-04
17		1.028000000000000e-10
	1.521545682502993e+00
	1.521545671379946e+00
	0.000000000000000e+00
	3.300000000000000e+00
	1.521545674263864e+00
	1.521545676471167e+00
	1.521545681141606e+00
	3.299500730290235e+00
	1.522044941096576e+00
	3.299500730288003e+00
	1.522044950860027e+00
	3.299500730285398e+00
	1.522044946189414e+00
	3.299500730291842e+00
	1.522044943980603e+00
	3.299500730284021e+00
	1.522044952222344e+00
	1.520636837389653e+00
	9.088339826858299e-04
	1.520636847155019e+00
	9.088339782216708e-04
	1.520636842485508e+00
	9.088339742421882e-04
	1.520636840272999e+00
	9.088339851416965e-04
	1.520636848519623e+00
	9.088339714853715e-04
	7.751819303953714e-04
	-7.751819303935182e-04
18		1.128000000000000e-10
	1.521545687722077e+00
	1.521545668741118e+00
	0.000000000000000e+00
	3.300000000000000e+00
	1.521545668457519e+00
	1.521545680649476e+00
	1.521545680189744e+00
	3.299500730289024e+00
	1.522044938457602e+00
	3.299500730291314e+00
	1.522044949907415e+00
	3.299500730281311e+00
	1.522044950369071e+00
	3.299500730295204e+00
	1.522044938172815e+00
	3.299500730282727e+00
	1.522044957442405e+00
	1.520636834751178e+00
	9.088339808164444e-04
	1.520636846200540e+00
	9.088339837552417e-04
	1.520636846667728e+00
	9.088339670613461e-04
	1.520636834462973e+00
	9.088339911311049e-04
	1.520636853740784e+00
	9.088339688762452e-04
	7.751819303787174e-04
	-7.751819303784947e-04
19		1.228000000000000e-10
	1.521545694032036e+00
	1.521545668606651e+00
	0.000000000000000e+00
	3.300000000000000e+00
	1.521545658383981e+00
	1.521545690640735e+00
	1.521545674096425e+00
	3.299500730283947e+00
	1.522044938324059e+00
	3.299500730298542e+00
	1.522044943811895e+00
	3.299500730274634e+00
	1.522044960362976e+00
	3.299500730298725e+00
	1.522044928097205e+00
	3.299500730283652e+00
	1.522044963753081e+00
	1.520636834620397e+00
	9.088339724270173e-04
	1.520636840100595e+00
	9.088339963120738e-04
	1.520636856665991e+00
	9.088339552304704e-04
	1.520636824384696e+00
	9.088339978175264e-04
	1.520636860051376e+00
	9.088339699894730e-04
	7.751819303953149e-04
	-7.751819303959354e-04
20		1.328000000000000e-10
	1.521545697576111e+00
	1.521545676680908e+00
	0.000000000000000e+00
	3.300000000000000e+00
	1.521545644577591e+00
	1.521545709436156e+00
	1.521545657489405e+00
	3.299500730271582e+00
	1.522044946401752e+00
	3.299500730311327e+00
	1.522044927200161e+00
	3.299500730266372e+00
	1.522044979162580e+00
	3.299500730299367e+00
	1.522044914288751e+00
	3.299500730290936e+00
	1.522044967296302e+00
	1.520636842705480e+00
	9.088339511603724e-04
	1.520636823480680e+00
	9.088340188196117e-04
	1.520636875471483e+00
	9.088339399788717e-04
	1.520636810574935e+00
	9.088339998889915e-04
	1.520636863590862e+00
	9.088339817932984e-04
	7.751819303788701e-04
	-7.751819303780872e-04
21		1.428000000000000e-10
	1.521545688671140e+00
	1.521545703188411e+00
	0.000000000000000e+00
	3.300000000000000e+00
	1.521545632478535e+00
	1.521545737916127e+00
	1.521545623505876e+00
	3.299500730247891e+00
	1.522044972917388e+00
	3.299500730329187e+00
	1.522044893208529e+00
	3.299500730261105e+00
	1.522045007647541e+00
	3.299500730289968e+00
	1.522044902189736e+00
	3.299500730311349e+00
	1.522044958386285e+00
	1.520636869235993e+00
	9.088339097346485e-04
	1.520636789476809e+00
	9.088340512161615e-04
	1.520636903961330e+00
	9.088339290830767e-04
	1.520636798480215e+00
	9.088339852180524e-04
	1.520636854668971e+00
	9.088340165244650e-04
	7.751819303952682e-04
	-7.751819303952388e-04
22		1.528000000000000e-10
	1.521545648484430e+00
	1.521545762756242e+00
	0.000000000000000e+00
	3.300000000000000e+00
	1.521545637932786e+00
	1.521545769276341e+00
	1.521545567310011e+00
	3.299500730211386e+00
	1.522045032500390e+00
	3.299500730345753e+00
	1.522044837001672e+00
	3.299500730270865e+00
	1.522045039010358e+00
	3.299500730257670e+00
	1.522044907650756e+00
	3.299500730353908e+00
	1.522044918186008e+00
	1.520636928843292e+00
	9.088338443293605e-04
	1.520636733256897e+00
	9.088340830503540e-04
	1.520636935321014e+00
	9.088339428823840e-04
	1.520636803959399e+00
	9.088339309571632e-04
	1.520636814442476e+00
	9.088340904216699e-04
	7.751819303787886e-04
	-7.751819303792961e-04
23		1.628000000000000e-10
	1.521545547418518e+00
	1.521545869647954e+00
	0.000000000000000e+00
	3.300000000000000e+00
	1.521545694568172e+00
	1.521545778704450e+00
	1.521545495420386e+00
	3.299500730169771e+00
	1.522045139414886e+00
	3.299500730341534e+00
	1.522044765102706e+00
	3.299500730319247e+00
	1.522045048430807e+00
	3.299500730183544e+00
	1.522044964307888e+00
	3.299500730425403e+00
	1.522044817092581e+00
	1.520637035788194e+00
	9.088337669009368e-04
	1.520636661355158e+00
	9.088340815796893e-04
	1.520636944715504e+00
	9.088340227887966e-04
	1.520636860661268e+00
	9.088338032346375e-04
	1.520636713302584e+00
	9.088342172713040e-04
	7.751819303951098e-04
	-7.751819303944349e-04
24		1.728000000000000e-10
	1.521545350623115e+00
	1.521546022753331e+00
	0.000000000000000e+00
	3.300000000000000e+00
	1.521545859884897e+00
	1.521545708012957e+00
	1.521545444485588e+00
	3.299500730153227e+00
	1.522045292544901e+00
	3.299500730274603e+00
	1.522044714173168e+00
	3.299500730444149e+00
	1.522044977706156e+00
	3.299500730048441e+00
	1.522045129672994e+00
	3.299500730519162e+00
	1.522044620252045e+00
	1.520637188938130e+00
	9.088337275790766e-04
	1.520636610458850e+00
	9.088339739598733e-04
	1.520636873917204e+00
	9.088342361465796e-04
	1.520637026112349e+00
	9.088335655384652e-04
	1.520636516396625e+00
	9.088343884176332e-04
	7.751819303789586e-04
	-7.751819303792524e-04
25		1.828000000000000e-10
	1.521545041001515e+00
	1.521546172483307e+00
	0.000000000000000e+00
	3.300000000000000e+00
	1.521546211134222e+00
	1.521545449301943e+00
	1.521545511839481e+00
	3.299500730233886e+00
	1.522045442280982e+00
	3.299500730071927e+00
	1.522044781574196e+00
	3.299500730691365e+00
	1.522044718912782e+00
	3.299500729851053e+00
	1.522045481008456e+00
	3.299500730591269e+00
	1.522044310573442e+00
	1.520637338640402e+00
	9.088338505011714e-04
	1.520636677976057e+00
	9.088336313362370e-04
	1.520636614969614e+00
	9.088346676980440e-04
	1.520637377581117e+00
	9.088332099948455e-04
	1.520636206656505e+00
	9.088345322460292e-04
	7.751819303953143e-04
	-7.751819303954500e-04
26		1.927999999999999e-10
	1.521544675735947e+00
	1.521546162267505e+00
	0.000000000000000e+00
	3.300000000000000e+00
	1.521546812362223e+00
	1.521544841759850e+00
	1.521545893634673e+00
	3.299500730547861e+00
	1.522045432005416e+00
	3.299500729633352e+00
	1.522045163504632e+00
	3.299500731087079e+00
	1.522044111211614e+00
	3.299500729649408e+00
	1.522046082358593e+00
	3.299500730521881e+00
	1.522043945269320e+00
	1.520637328191488e+00
	9.088343741058955e-04
	1.520637060174618e+00
	9.088328716884039e-04
	1.520636007008001e+00
	9.088353731318635e-04
	1.520637979084578e+00
	9.088328281293981e-04
	1.520635841364784e+00
	9.088344445864279e-04
	7.751819303789045e-04
	-7.751819303773983e-04
27		2.027999999999999e-10
	1.521544494641400e+00
	1.521545646379646e+00
	0.000000000000000e+00
	3.300000000000000e+00
	1.521547621267187e+00
	1.521543714018736e+00
