Title: *** SPICE deck for cell tb_osc11_sw{sch} from library lab1
Date: Thu Feb 13 17:51:58  2020
Plotname: Transient Analysis
Flags: real
No. Variables: 67
No. Points: 167     
Command: version 1.06.00
Variables:
	0	time	time
	1	net@23	voltage
	2	gnd	voltage
	3	Xosc11_sw@0:net@11	voltage
	4	Xosc11_sw@0:net@1	voltage
	5	vdd	voltage
	6	Xosc11_sw@0:net@2	voltage
	7	Xosc11_sw@0:net@3	voltage
	8	Xosc11_sw@0:net@27	voltage
	9	Xosc11_sw@0:net@15	voltage
	10	Xosc11_sw@0:net@26	voltage
	11	Xosc11_sw@0:net@17	voltage
	12	Xosc11_sw@0:net@19	voltage
	13	Xosc11_sw@0:net@22	voltage
	14	ring_out_11	voltage
	15	X:Xosc11_sw@0:Xnand@0:net@0	voltage
	16	M:X:Xosc11_sw@0:Xnand@0:Mpmos@1#drain	voltage
	17	M:X:Xosc11_sw@0:Xnand@0:Mpmos@1#source	voltage
	18	M:X:Xosc11_sw@0:Xnand@0:Mpmos@0#drain	voltage
	19	M:X:Xosc11_sw@0:Xnand@0:Mpmos@0#source	voltage
	20	M:X:Xosc11_sw@0:Xinv@10:Mpmos@1#drain	voltage
	21	M:X:Xosc11_sw@0:Xinv@10:Mpmos@1#source	voltage
	22	M:X:Xosc11_sw@0:Xinv@9:Mpmos@1#drain	voltage
	23	M:X:Xosc11_sw@0:Xinv@9:Mpmos@1#source	voltage
	24	M:X:Xosc11_sw@0:Xinv@8:Mpmos@1#drain	voltage
	25	M:X:Xosc11_sw@0:Xinv@8:Mpmos@1#source	voltage
	26	M:X:Xosc11_sw@0:Xinv@7:Mpmos@1#drain	voltage
	27	M:X:Xosc11_sw@0:Xinv@7:Mpmos@1#source	voltage
	28	M:X:Xosc11_sw@0:Xinv@6:Mpmos@1#drain	voltage
	29	M:X:Xosc11_sw@0:Xinv@6:Mpmos@1#source	voltage
	30	M:X:Xosc11_sw@0:Xinv@5:Mpmos@1#drain	voltage
	31	M:X:Xosc11_sw@0:Xinv@5:Mpmos@1#source	voltage
	32	M:X:Xosc11_sw@0:Xinv@4:Mpmos@1#drain	voltage
	33	M:X:Xosc11_sw@0:Xinv@4:Mpmos@1#source	voltage
	34	M:X:Xosc11_sw@0:Xinv@3:Mpmos@1#drain	voltage
	35	M:X:Xosc11_sw@0:Xinv@3:Mpmos@1#source	voltage
	36	M:X:Xosc11_sw@0:Xinv@2:Mpmos@1#drain	voltage
	37	M:X:Xosc11_sw@0:Xinv@2:Mpmos@1#source	voltage
	38	M:X:Xosc11_sw@0:Xinv@1:Mpmos@1#drain	voltage
	39	M:X:Xosc11_sw@0:Xinv@1:Mpmos@1#source	voltage
	40	M:X:Xosc11_sw@0:Xnand@0:Mnmos@1#drain	voltage
	41	M:X:Xosc11_sw@0:Xnand@0:Mnmos@1#source	voltage
	42	M:X:Xosc11_sw@0:Xnand@0:Mnmos@0#drain	voltage
	43	M:X:Xosc11_sw@0:Xnand@0:Mnmos@0#source	voltage
	44	M:X:Xosc11_sw@0:Xinv@10:Mnmos@0#drain	voltage
	45	M:X:Xosc11_sw@0:Xinv@10:Mnmos@0#source	voltage
	46	M:X:Xosc11_sw@0:Xinv@9:Mnmos@0#drain	voltage
	47	M:X:Xosc11_sw@0:Xinv@9:Mnmos@0#source	voltage
	48	M:X:Xosc11_sw@0:Xinv@8:Mnmos@0#drain	voltage
	49	M:X:Xosc11_sw@0:Xinv@8:Mnmos@0#source	voltage
	50	M:X:Xosc11_sw@0:Xinv@7:Mnmos@0#drain	voltage
	51	M:X:Xosc11_sw@0:Xinv@7:Mnmos@0#source	voltage
	52	M:X:Xosc11_sw@0:Xinv@6:Mnmos@0#drain	voltage
	53	M:X:Xosc11_sw@0:Xinv@6:Mnmos@0#source	voltage
	54	M:X:Xosc11_sw@0:Xinv@5:Mnmos@0#drain	voltage
	55	M:X:Xosc11_sw@0:Xinv@5:Mnmos@0#source	voltage
	56	M:X:Xosc11_sw@0:Xinv@4:Mnmos@0#drain	voltage
	57	M:X:Xosc11_sw@0:Xinv@4:Mnmos@0#source	voltage
	58	M:X:Xosc11_sw@0:Xinv@3:Mnmos@0#drain	voltage
	59	M:X:Xosc11_sw@0:Xinv@3:Mnmos@0#source	voltage
	60	M:X:Xosc11_sw@0:Xinv@2:Mnmos@0#drain	voltage
	61	M:X:Xosc11_sw@0:Xinv@2:Mnmos@0#source	voltage
	62	M:X:Xosc11_sw@0:Xinv@1:Mnmos@0#drain	voltage
	63	M:X:Xosc11_sw@0:Xinv@1:Mnmos@0#source	voltage
	64	vgnd#branch	current
	65	vsupply#branch	current
	66	VPWL@0#branch	current
Values:
0		0.000000000000000e+00
	3.000000000000000e+00
	0.000000000000000e+00
	1.521545677152854e+00
	1.521545677151694e+00
	3.300000000000000e+00
	1.521545677168547e+00
	1.521545676791601e+00
	1.521545668758336e+00
	1.521544776162698e+00
	1.521545718382030e+00
	1.521565366215256e+00
	1.521115391034400e+00
	1.530936273695829e+00
	1.312800619310349e+00
	1.178719663319947e+00
	3.299459637231573e+00
	1.522086039921678e+00
	3.299999990692407e+00
	1.521545686460844e+00
	3.299500730283990e+00
	1.522044988103824e+00
	3.299501329949252e+00
	1.313299289367561e+00
	3.299500722167144e+00
	1.531435551534440e+00
	3.299500730700575e+00
	1.521614660339610e+00
	3.299500730269110e+00
	1.522064635951930e+00
	3.299500730288769e+00
	1.522044045879714e+00
	3.299500730287472e+00
	1.522044938476648e+00
	3.299500730287908e+00
	1.522044946509477e+00
	3.299500730287909e+00
	1.522044946886423e+00
	3.299500730287908e+00
	1.522044946870731e+00
	1.178236172514418e+00
	4.834908046049079e-04
	1.521062186344047e+00
	1.179203154125477e+00
	1.520636884401988e+00
	9.088339710329161e-04
	1.311892876901304e+00
	9.077424012720188e-04
	1.530027424926093e+00
	9.088487606714523e-04
	1.520206557798237e+00
	9.088332271568210e-04
	1.520656532193687e+00
	9.088340125601299e-04
	1.520635942176914e+00
	9.088339767756259e-04
	1.520636834771844e+00
	9.088339774827041e-04
	1.520636842804251e+00
	9.088339783411776e-04
	1.520636843181194e+00
	9.088339783435989e-04
	1.520636843165504e+00
	9.088339783414411e-04
	2.173029970882643e-03
	-2.173029973622566e-03
	-3.000000000000000e-03
1		1.000000000000000e-12
	3.000000000000000e+00
	0.000000000000000e+00
	1.521545677153801e+00
	1.521545677151845e+00
	3.300000000000000e+00
	1.521545677174029e+00
	1.521545676825090e+00
	1.521545668956662e+00
	1.521544776277424e+00
	1.521545719094704e+00
	1.521565366233752e+00
	1.521115391037398e+00
	1.530936273696514e+00
	1.312800619310408e+00
	1.178719663319981e+00
	3.299459637231573e+00
	1.522086039921829e+00
	3.299999990692407e+00
	1.521545686460995e+00
	3.299500730284514e+00
	1.522044988814660e+00
	3.299501329949253e+00
	1.313299289367621e+00
	3.299500722167151e+00
	1.531435551535126e+00
	3.299500730700623e+00
	1.521614660342625e+00
	3.299500730269403e+00
	1.522064635970529e+00
	3.299500730290587e+00
	1.522044045995073e+00
	3.299500730287563e+00
	1.522044938674433e+00
	3.299500730287923e+00
	1.522044946542874e+00
	3.299500730287912e+00
	1.522044946891889e+00
	3.299500730287908e+00
	1.522044946871675e+00
	1.178236172514452e+00
	4.834908046050787e-04
	1.521062186344197e+00
	1.179203154125510e+00
	1.520636885112021e+00
	9.088339717019650e-04
	1.311892876901364e+00
	9.077424012741995e-04
	1.530027424926778e+00
	9.088487606810364e-04
	1.520206557801241e+00
	9.088332272158743e-04
	1.520656532212217e+00
	9.088340129264094e-04
	1.520635942291849e+00
	9.088339790509374e-04
	1.520636834969415e+00
	9.088339775997877e-04
	1.520636842837612e+00
	9.088339783603960e-04
	1.520636843186656e+00
	9.088339783469037e-04
	1.520636843166448e+00
	9.088339783419705e-04
	2.173029972042871e-03
	-2.173029972038347e-03
	-2.999999999999281e-03
2		2.000000000000000e-12
	3.000000000000000e+00
	0.000000000000000e+00
	1.521545677154646e+00
	1.521545677151963e+00
	3.300000000000000e+00
	1.521545677178973e+00
	1.521545676855943e+00
	1.521545669143544e+00
	1.521544776308933e+00
	1.521545719766870e+00
	1.521565366226488e+00
	1.521115391034241e+00
	1.530936273695900e+00
	1.312800619310379e+00
	1.178719663319992e+00
	3.299459637231573e+00
	1.522086039921948e+00
	3.299999990692407e+00
	1.521545686461113e+00
	3.299500730284623e+00
	1.522044989486789e+00
	3.299501329949250e+00
	1.313299289367589e+00
	3.299500722167136e+00
	1.531435551534507e+00
	3.299500730700568e+00
	1.521614660339439e+00
	3.299500730269259e+00
	1.522064635963158e+00
	3.299500730290916e+00
	1.522044046026349e+00
	3.299500730287581e+00
	1.522044938861319e+00
	3.299500730287926e+00
	1.522044946573730e+00
	3.299500730287912e+00
	1.522044946896834e+00
	3.299500730287908e+00
	1.522044946872520e+00
	1.178236172514463e+00
	4.834908046048704e-04
	1.521062186344316e+00
	1.179203154125522e+00
	1.520636885784064e+00
	9.088339719287834e-04
	1.311892876901332e+00
	9.077424012708525e-04
	1.530027424926161e+00
	9.088487606648360e-04
	1.520206557798063e+00
	9.088332271548695e-04
	1.520656532204847e+00
	9.088340127924814e-04
	1.520635942322841e+00
	9.088339797400499e-04
	1.520636835156289e+00
	9.088339776397856e-04
	1.520636842868466e+00
	9.088339783666220e-04
	1.520636843191601e+00
	9.088339783479266e-04
	1.520636843167292e+00
	9.088339783420858e-04
	2.173029972081427e-03
	-2.173029972076362e-03
	-2.999999999999488e-03
3		4.000000000000001e-12
	3.000000000000000e+00
	0.000000000000000e+00
	1.521545677156098e+00
	1.521545677152204e+00
	3.300000000000000e+00
	1.521545677187750e+00
	1.521545676912742e+00
	1.521545669496520e+00
	1.521544776218562e+00
	1.521545721038446e+00
	1.521565366180959e+00
	1.521115391024565e+00
	1.530936273694778e+00
	1.312800619310371e+00
	1.178719663320066e+00
	3.299459637231573e+00
	1.522086039922188e+00
	3.299999990692407e+00
	1.521545686461354e+00
	3.299500730284826e+00
	1.522044990758294e+00
	3.299501329949251e+00
	1.313299289367582e+00
	3.299500722167125e+00
	1.531435551533383e+00
	3.299500730700481e+00
	1.521614660329740e+00
	3.299500730268904e+00
	1.522064635917475e+00
	3.299500730291529e+00
	1.522044045935531e+00
	3.299500730287615e+00
	1.522044939214303e+00
	3.299500730287931e+00
	1.522044946630534e+00
	3.299500730287912e+00
	1.522044946905613e+00
	3.299500730287908e+00
	1.522044946873972e+00
	1.178236172514537e+00
	4.834908046049748e-04
	1.521062186344556e+00
	1.179203154125596e+00
	1.520636887055415e+00
	9.088339723545812e-04
	1.311892876901326e+00
	9.077424012697740e-04
	1.530027424925042e+00
	9.088487606467713e-04
	1.520206557788388e+00
	9.088332270385964e-04
	1.520656532159226e+00
	9.088340123712814e-04
	1.520635942231485e+00
	9.088339810276696e-04
	1.520636835509253e+00
	9.088339777130519e-04
	1.520636842925270e+00
	9.088339783773356e-04
	1.520636843200379e+00
	9.088339783495533e-04
	1.520636843168745e+00
	9.088339783424452e-04
	2.173029972146696e-03
	-2.173029972140980e-03
	-2.999999999999287e-03
4		8.000000000000001e-12
	3.000000000000000e+00
	0.000000000000000e+00
	1.521545677157955e+00
	1.521545677152457e+00
	3.300000000000000e+00
	1.521545677199926e+00
	1.521545677001198e+00
	1.521545670093687e+00
	1.521544775250373e+00
	1.521545723196929e+00
	1.521565366107257e+00
	1.521115391035358e+00
	1.530936273700167e+00
	1.312800619310647e+00
	1.178719663320277e+00
	3.299459637231573e+00
	1.522086039922442e+00
	3.299999990692407e+00
	1.521545686461608e+00
	3.299500730285172e+00
	1.522044992916650e+00
	3.299501329949261e+00
	1.313299289367862e+00
	3.299500722167167e+00
	1.531435551538791e+00
	3.299500730700514e+00
	1.521614660340600e+00
	3.299500730267854e+00
	1.522064635843762e+00
	3.299500730292556e+00
	1.522044044966552e+00
	3.299500730287669e+00
	1.522044939811486e+00
	3.299500730287937e+00
	1.522044946719000e+00
	3.299500730287913e+00
	1.522044946917791e+00
	3.299500730287908e+00
	1.522044946875831e+00
	1.178236172514748e+00
	4.834908046053933e-04
	1.521062186344810e+00
	1.179203154125807e+00
	1.520636889213505e+00
	9.088339730785094e-04
	1.311892876901604e+00
	9.077424012835239e-04
	1.530027424930442e+00
	9.088487606972537e-04
	1.520206557799274e+00
	9.088332270369886e-04
	1.520656532085972e+00
	9.088340107735029e-04
	1.520635941261595e+00
	9.088339831776064e-04
	1.520636836106404e+00
	9.088339778296377e-04
	1.520636843013734e+00
	9.088339783926479e-04
	1.520636843212558e+00
	9.088339783517304e-04
	1.520636843170603e+00
	9.088339783425898e-04
	2.173029972222812e-03
	-2.173029972215577e-03
	-2.999999999999825e-03
5		1.600000000000000e-11
	3.000000000000000e+00
	0.000000000000000e+00
	1.521545677159204e+00
	1.521545677152770e+00
	3.300000000000000e+00
	1.521545677210719e+00
	1.521545677109579e+00
	1.521545670973925e+00
	1.521544771174697e+00
	1.521545726375169e+00
	1.521565367419150e+00
	1.521115390933173e+00
	1.530936273715512e+00
	1.312800619308963e+00
	1.178719663320537e+00
	3.299459637231571e+00
	1.522086039922755e+00
	3.299999990692407e+00
	1.521545686461921e+00
	3.299500730285693e+00
	1.522044996094678e+00
	3.299501329949265e+00
	1.313299289366166e+00
	3.299500722167011e+00
	1.531435551554107e+00
	3.299500730701931e+00
	1.521614660238420e+00
	3.299500730264881e+00
	1.522064637156514e+00
	3.299500730294018e+00
	1.522044040889630e+00
	3.299500730287737e+00
	1.522044940691748e+00
	3.299500730287943e+00
	1.522044946827397e+00
	3.299500730287914e+00
	1.522044946928588e+00
	3.299500730287908e+00
	1.522044946877080e+00
	1.178236172515008e+00
	4.834908046027411e-04
	1.521062186345123e+00
	1.179203154126067e+00
	1.520636892391131e+00
	9.088339741549607e-04
	1.311892876899900e+00
	9.077424012954425e-04
	1.530027424945810e+00
	9.088487604806578e-04
	1.520206557696474e+00
	9.088332291893877e-04
	1.520656533400529e+00
	9.088340056134611e-04
	1.520635937183347e+00
	9.088339862238094e-04
	1.520636836986628e+00
	9.088339779803143e-04
	1.520636843122131e+00
	9.088339784069731e-04
	1.520636843223355e+00
	9.088339783530431e-04
	1.520636843171852e+00
	9.088339783431518e-04
	2.173029972278309e-03
	-2.173029972267199e-03
	-2.999999999999630e-03
6		3.200000000000001e-11
	3.000000000000000e+00
	0.000000000000000e+00
	1.521545677045465e+00
	1.521545677377538e+00
	3.300000000000000e+00
	1.521545677264479e+00
	1.521545677161817e+00
	1.521545672043328e+00
	1.521544759050083e+00
	1.521545730046887e+00
	1.521565380390739e+00
	1.521115382790413e+00
	1.530936278136609e+00
	1.312800618634013e+00
	1.178719663566157e+00
	3.299459637231060e+00
	1.522086040147632e+00
	3.299999990692407e+00
	1.521545686686615e+00
	3.299500730286346e+00
	1.522044999766083e+00
	3.299501329952981e+00
	1.313299288689904e+00
	3.299500722160428e+00
	1.531435555976462e+00
	3.299500730711347e+00
	1.521614652092820e+00
	3.299500730257599e+00
	1.522064650131743e+00
	3.299500730295554e+00
	1.522044028763406e+00
	3.299500730287774e+00
	1.522044941761193e+00
	3.299500730287988e+00
	1.522044946879645e+00
	3.299500730287820e+00
	1.522044946982370e+00
	3.299500730288095e+00
	1.522044946763307e+00
	1.178236172760885e+00
	4.834908039133152e-04
	1.521062186569911e+00
	1.179203154371430e+00
	1.520636896062023e+00
	9.088339754795426e-04
	1.311892876221481e+00
	9.077424073748430e-04
	1.530027429371788e+00
	9.088487495358464e-04
	1.520206549545151e+00
	9.088332454620649e-04
	1.520656546380951e+00
	9.088339921390397e-04
	1.520635925055659e+00
	9.088339893866775e-04
	1.520636838056055e+00
	9.088339780740867e-04
	1.520636843174361e+00
	9.088339784827770e-04
	1.520636843277189e+00
	9.088339781976693e-04
	1.520636843057978e+00
	9.088339786495761e-04
	2.173029972256500e-03
	-2.173029972248838e-03
	-2.999999999778681e-03
7		6.400000000000001e-11
	3.000000000000000e+00
	0.000000000000000e+00
	1.521545645745719e+00
	1.521545705504533e+00
	3.300000000000000e+00
	1.521545711735482e+00
	1.521545639318129e+00
	1.521545714526152e+00
	1.521544782331569e+00
	1.521545687523113e+00
	1.521565393519511e+00
	1.521115336291581e+00
	1.530936357421736e+00
	1.312800589187437e+00
	1.178719688028260e+00
	3.299459637213216e+00
	1.522086068281457e+00
	3.299999990692407e+00
	1.521545714809165e+00
	3.299500730315571e+00
	1.522044957231809e+00
	3.299501330007439e+00
	1.313299259208838e+00
	3.299500722132974e+00
	1.531435635273994e+00
	3.299500730714483e+00
	1.521614605586687e+00
	3.299500730278041e+00
	1.522064663257735e+00
	3.299500730265046e+00
	1.522044052054501e+00
	3.299500730261709e+00
	1.522044984253276e+00
	3.299500730311736e+00
	1.522044909027561e+00
	3.299500730266292e+00
	1.522044981461032e+00
	3.299500730307371e+00
	1.522044915456635e+00
	1.178236197237387e+00
	4.834907783943864e-04
	1.521062214698500e+00
	1.179203178819133e+00
	1.520636853509233e+00
	9.088340266682706e-04
	1.311892846701925e+00
	9.077425029422383e-04
	1.530027508688347e+00
	9.088486990673607e-04
	1.520206503033967e+00
	9.088332542154744e-04
	1.520656559496144e+00
	9.088340257894899e-04
	1.520635948365553e+00
	9.088339363293358e-04
	1.520636880564559e+00
	9.088339325622841e-04
	1.520636805307321e+00
	9.088340199670043e-04
	1.520636877769432e+00
	9.088339405707791e-04
	1.520636811739111e+00
	9.088340123822094e-04
	2.173029973871003e-03
	-2.173029973864157e-03
	-2.999999987762786e-03
8		1.280000000000000e-10
	3.000000000000000e+00
	0.000000000000000e+00
	1.521545762983511e+00
	1.521545595556588e+00
	3.300000000000000e+00
	1.521545591211023e+00
	1.521545754651756e+00
	1.521545622975370e+00
	1.521544844639326e+00
	1.521545720836048e+00
	1.521565224517696e+00
	1.521115587102053e+00
	1.530936008351390e+00
	1.312800710164150e+00
	1.178719591587344e+00
	3.299459637287534e+00
	1.522085958305852e+00
	3.299999990692407e+00
	1.521545604879232e+00
	3.299500730246046e+00
	1.522044990563010e+00
	3.299501329762083e+00
	1.313299380332373e+00
	3.299500722296056e+00
	1.531435286144487e+00
	3.299500730611849e+00
	1.521614856448399e+00
	3.299500730305479e+00
	1.522064494230700e+00
	3.299500730299564e+00
	1.522044114361712e+00
	3.299500730344370e+00
	1.522044892676298e+00
	3.299500730227131e+00
	1.522045024389640e+00
	3.299500730347793e+00
	1.522044860908418e+00
	3.299500730231407e+00
	1.522045032721120e+00
	1.178236100737984e+00
	4.834908842558797e-04
	1.521062104744211e+00
	1.179203082436704e+00
	1.520636886881361e+00
	9.088339079616106e-04
	1.311892967995021e+00
	9.077420759915117e-04
	1.530027159453769e+00
	9.088489890614728e-04
	1.520206753967761e+00
	9.088330670395753e-04
	1.520656390444181e+00
	9.088340818804713e-04
	1.520636010656498e+00
	9.088339911493583e-04
	1.520636788936888e+00
	9.088340756394715e-04
	1.520636920722018e+00
	9.088338728282998e-04
	1.520636757165791e+00
	9.088340826419333e-04
	1.520636929051369e+00
	9.088338797471028e-04
	2.173029967821406e-03
	-2.173029967811838e-03
	-3.000000036679501e-03
9		2.280000000000000e-10
	3.000000000000000e+00
	0.000000000000000e+00
	1.521545527964391e+00
	1.521545826649648e+00
	3.300000000000000e+00
	1.521545812645849e+00
	1.521545578021946e+00
	1.521545705425398e+00
	1.521544576884413e+00
	1.521545792915228e+00
	1.521565682885879e+00
	1.521114990740941e+00
	1.530936792420248e+00
	1.312800446253159e+00
	1.178719795811606e+00
	3.299459637124263e+00
	1.522086189458900e+00
	3.299999990692408e+00
	1.521545835933231e+00
	3.299500730321758e+00
	1.522045062634265e+00
	3.299501330317327e+00
	1.313299116095312e+00
	3.299500721899901e+00
	1.531436070349722e+00
	3.299500730906192e+00
	1.521614259959195e+00
	3.299500730148885e+00
	1.522064952682092e+00
	3.299500730323246e+00
	1.522043846572198e+00
	3.299500730210948e+00
	1.522044975162002e+00
	3.299500730386332e+00
	1.522044847709945e+00
	3.299500730182353e+00
	1.522045082398401e+00
	3.299500730392273e+00
	1.522044797646640e+00
	1.178236305089158e+00
	4.834906521785527e-04
	1.521062335850803e+00
	1.179203286534055e+00
	1.520636958913799e+00
	9.088340312889109e-04
	1.311892703376996e+00
	9.077430396185368e-04
	1.530027943910238e+00
	9.088482895398105e-04
	1.520206157281275e+00
	9.088335936808007e-04
	1.520656849008111e+00
	9.088337932184617e-04
	1.520635742839395e+00
	9.088340456859634e-04
	1.520636871501298e+00
	9.088338478410072e-04
	1.520636743945003e+00
	9.088341480281691e-04
	1.520636978758437e+00
	9.088337951491692e-04
	1.520636693876264e+00
	9.088341600834066e-04
	2.173029980514152e-03
	-2.173029980513042e-03
	-2.999999930331701e-03
10		3.280000000000001e-10
	3.000000000000000e+00
	0.000000000000000e+00
	1.521545917453778e+00
	1.521545415813736e+00
	3.300000000000000e+00
	1.521545491164557e+00
	1.521545762126708e+00
	1.521545745801835e+00
	1.521545257923550e+00
	1.521545447970442e+00
	1.521564698162533e+00
	1.521116185922825e+00
	1.530935282083137e+00
	1.312800939851459e+00
	1.178719428777549e+00
	3.299459637432119e+00
	1.522085778511453e+00
	3.299999990692406e+00
	1.521545425169918e+00
	3.299500730310429e+00
	1.522044717654250e+00
	3.299501329241575e+00
	1.313299610316138e+00
	3.299500722703784e+00
	1.531434559744234e+00
	3.299500730257293e+00
	1.521615455405034e+00
	3.299500730575159e+00
	1.522063967765247e+00
	3.299500730131449e+00
	1.522044527725493e+00
	3.299500730366197e+00
	1.522045015511735e+00
	3.299500730146415e+00
	1.522045031881461e+00
	3.299500730461710e+00
	1.522044760829005e+00
	3.299500730103175e+00
	1.522045187232482e+00
	1.178235937819129e+00
	4.834910886893932e-04
	1.521061924990341e+00
	1.179202919735969e+00
	1.520636613922096e+00
	9.088340309197566e-04
	1.311893198331883e+00
	9.077411763556925e-04
	1.530026432799466e+00
	9.088497034760359e-04
	1.520207353152788e+00
	9.088324426468228e-04
	1.520655863801228e+00
	9.088345615469972e-04
	1.520636424136204e+00
	9.088336866110810e-04
	1.520636911766557e+00
	9.088341055694659e-04
	1.520636928259181e+00
	9.088337373737498e-04
	1.520636657018047e+00
	9.088342782276604e-04
