Title: *** SPICE deck for cell tb_nand{lay} from library lab2
Date: Tue Mar 03 17:22:12  2020
Plotname: Transient Analysis
Flags: real
No. Variables: 15
No. Points: 1008    
Command: version 1.06.00
Variables:
	0	time	time
	1	Xmynand@0:net@0	voltage
	2	vdd	voltage
	3	gnd	voltage
	4	nand_out	voltage
	5	M:Xmynand@0:Mpmos@1#drain	voltage
	6	M:Xmynand@0:Mpmos@1#source	voltage
	7	M:Xmynand@0:Mpmos@0#drain	voltage
	8	M:Xmynand@0:Mpmos@0#source	voltage
	9	M:Xmynand@0:Mnmos@1#drain	voltage
	10	M:Xmynand@0:Mnmos@1#source	voltage
	11	M:Xmynand@0:Mnmos@0#drain	voltage
	12	M:Xmynand@0:Mnmos@0#source	voltage
	13	vgnd#branch	current
	14	vsupply#branch	current
Values:
0		0.000000000000000e+00
	2.708226057493419e-08
	3.300000000000000e+00
	0.000000000000000e+00
	5.416452123713030e-08
	3.299999999978056e+00
	5.419719748982148e-08
	5.419719748982148e-08
	3.299999999978056e+00
	5.404555832805859e-08
	2.720122348352487e-08
	2.696329766634352e-08
	1.189629084303316e-10
	2.029367272399831e-11
	-2.029388896407017e-11
1		1.000000000000000e-13
	2.708226049751865e-08
	3.300000000000000e+00
	0.000000000000000e+00
	5.416452104425367e-08
	3.299999999978057e+00
	5.419719729251859e-08
	5.419719729251859e-08
	3.299999999978057e+00
	5.404555815129643e-08
	2.720122339508774e-08
	2.696329759994956e-08
	1.189629149814218e-10
	2.029367087224925e-11
	-2.029327957764070e-11
2		2.000000000000000e-13
	2.708226050114900e-08
	3.300000000000000e+00
	0.000000000000000e+00
	5.416452096320647e-08
	3.299999999978057e+00
	5.419719721432228e-08
	5.419719721432228e-08
	3.299999999978057e+00
	5.404555805987009e-08
	2.720122339902020e-08
	2.696329760327780e-08
	1.189629235484404e-10
	2.029367409044514e-11
	-2.029328166258537e-11
3		4.000000000000000e-13
	2.708226055532611e-08
	3.300000000000000e+00
	0.000000000000000e+00
	5.416452100591490e-08
	3.299999999978057e+00
	5.419719725563705e-08
	5.419719725563705e-08
	3.299999999978057e+00
	5.404555810765240e-08
	2.720122345793038e-08
	2.696329765272183e-08
	1.189629146682388e-10
	2.029367243915241e-11
	-2.029328012856740e-11
4		8.000000000000000e-13
	2.708226054769943e-08
	3.300000000000000e+00
	0.000000000000000e+00
	5.416452103174578e-08
	3.299999999978057e+00
	5.419719728310173e-08
	5.419719728310173e-08
	3.299999999978057e+00
	5.404555812753519e-08
	2.720122345777693e-08
	2.696329763762192e-08
	1.189629166219277e-10
	2.029367442351618e-11
	-2.029263213008501e-11
5		1.600000000000000e-12
	2.708226066673216e-08
	3.300000000000000e+00
	0.000000000000000e+00
	5.416452112798841e-08
	3.299999999978057e+00
	5.419719738074976e-08
	5.419719738074976e-08
	3.299999999978057e+00
	5.404555821866124e-08
	2.720122357614590e-08
	2.696329775731841e-08
	1.189629122821095e-10
	2.029367319357678e-11
	-2.029374901910777e-11
6		3.200000000000000e-12
	2.708226051318734e-08
	3.300000000000000e+00
	0.000000000000000e+00
	5.416452101942196e-08
	3.299999999978057e+00
	5.419719727097684e-08
	5.419719727097684e-08
	3.299999999978057e+00
	5.404555811448710e-08
	2.720122342107780e-08
	2.696329760529687e-08
	1.189629099724852e-10
	2.029367225714792e-11
	-2.029283229168133e-11
7		6.400000000000000e-12
	2.708226059141610e-08
	3.300000000000000e+00
	0.000000000000000e+00
	5.416452079082301e-08
	3.299999999978058e+00
	5.419719704296148e-08
	5.419719704435491e-08
	3.299999999978058e+00
	5.404555788122703e-08
	2.720122350034093e-08
	2.696329768249126e-08
	1.189629093980335e-10
	2.029367317016842e-11
	-2.029328691937274e-11
8		1.280000000000000e-11
	2.708226031878252e-08
	3.300000000000000e+00
	0.000000000000000e+00
	5.416452117014231e-08
	3.299999999978057e+00
	5.419719742326150e-08
	5.419719742256399e-08
	3.299999999978057e+00
	5.404555826078205e-08
	2.720122322596577e-08
	2.696329741159927e-08
	1.189629082135410e-10
	2.029367266095120e-11
	-2.029274196145627e-11
9		2.280000000000000e-11
	2.708226044590817e-08
	3.300000000000000e+00
	0.000000000000000e+00
	5.416452132303406e-08
	3.299999999978057e+00
	5.419719757587885e-08
	5.419719757547757e-08
	3.299999999978057e+00
	5.404555841413357e-08
	2.720122335607162e-08
	2.696329753574471e-08
	1.189629068790221e-10
	2.029367256328258e-11
	-2.029344097050865e-11
10		3.280000000000000e-11
	2.708226065340893e-08
	3.300000000000000e+00
	0.000000000000000e+00
	5.416452126816414e-08
	3.299999999978057e+00
	5.419719752104891e-08
	5.419719752070001e-08
	3.299999999978057e+00
	5.404555835902276e-08
	2.720122356009930e-08
	2.696329774671856e-08
	1.189629090037093e-10
	2.029367266719560e-11
	-2.029344096619305e-11
11		4.280000000000000e-11
	2.708226050343917e-08
	3.300000000000000e+00
	0.000000000000000e+00
	5.416452135976338e-08
	3.299999999978057e+00
	5.419719761293036e-08
	5.419719761223257e-08
	3.299999999978057e+00
	5.404555845022965e-08
	2.720122341399829e-08
	2.696329759288006e-08
	1.189629071566211e-10
	2.029367269541840e-11
	-2.029344094151327e-11
12		5.279999999999999e-11
	2.708226065379914e-08
	3.300000000000000e+00
	0.000000000000000e+00
	5.416452138425223e-08
	3.299999999978057e+00
	5.419719763705249e-08
	5.419719763670359e-08
	3.299999999978057e+00
	5.404555847541851e-08
	2.720122356054689e-08
	2.696329774705139e-08
	1.189629090603585e-10
	2.029367259065564e-11
	-2.029344090399440e-11
13		6.279999999999999e-11
	2.708226062417960e-08
	3.300000000000000e+00
	0.000000000000000e+00
	5.416452148804459e-08
	3.299999999978057e+00
	5.419719774146708e-08
	5.419719774111818e-08
	3.299999999978057e+00
	5.404555857694553e-08
	2.720122353548660e-08
	2.696329771287260e-08
	1.189629076568602e-10
	2.029367300674281e-11
	-2.029344085325005e-11
14		7.280000000000000e-11
	2.708226068003961e-08
	3.300000000000000e+00
	0.000000000000000e+00
	5.416452153568601e-08
	3.299999999978057e+00
	5.419719778802938e-08
	5.419719778802938e-08
	3.299999999978057e+00
	5.404555862788055e-08
	2.720122358694990e-08
	2.696329777312931e-08
	1.189629091690752e-10
	2.029367241340000e-11
	-2.029344081872774e-11
15		8.280000000000000e-11
	2.708226069995419e-08
	3.300000000000000e+00
	0.000000000000000e+00
	5.416452157237809e-08
	3.299999999978057e+00
	5.419719782574144e-08
	5.419719782574144e-08
	3.299999999978057e+00
	5.404555866085926e-08
	2.720122361173055e-08
	2.696329778817784e-08
	1.189629079708016e-10
	2.029367305408097e-11
	-2.029344079583249e-11
16		9.280000000000001e-11
	2.708226065244210e-08
	3.300000000000000e+00
	0.000000000000000e+00
	5.416452157951873e-08
	3.299999999978057e+00
	5.419719783183019e-08
	5.419719783183019e-08
	3.299999999978057e+00
	5.404555867182944e-08
	2.720122355918145e-08
	2.696329774570276e-08
	1.189629090547362e-10
	2.029367239782350e-11
	-2.029344079973132e-11
17		1.028000000000000e-10
	2.708226062399270e-08
	3.300000000000000e+00
	0.000000000000000e+00
	5.416452150136086e-08
	3.299999999978057e+00
	5.419719775477590e-08
	5.419719775477590e-08
	3.299999999978057e+00
	5.404555858965382e-08
	2.720122353529854e-08
	2.696329771268685e-08
	1.189629076560859e-10
	2.029367297170860e-11
	-2.029344084612665e-11
18		1.128000000000000e-10
	2.708226063827277e-08
	3.300000000000000e+00
	0.000000000000000e+00
	5.416452153813508e-08
	3.299999999978057e+00
	5.419719779047667e-08
	5.419719779047667e-08
	3.299999999978057e+00
	5.404555863033612e-08
	2.720122354492435e-08
	2.696329773162119e-08
	1.189629089960313e-10
	2.029367242406392e-11
	-2.029344082417182e-11
19		1.228000000000000e-10
	2.708226065488878e-08
	3.300000000000000e+00
	0.000000000000000e+00
	5.416452151617766e-08
	3.299999999978057e+00
	5.419719776958191e-08
	5.419719776958191e-08
	3.299999999978057e+00
	5.404555860450988e-08
	2.720122356638599e-08
	2.696329774339156e-08
	1.189629077840913e-10
	2.029367296312280e-11
	-2.029344083319982e-11
20		1.328000000000000e-10
	2.708226062154602e-08
	3.300000000000000e+00
	0.000000000000000e+00
	5.416452156470193e-08
	3.299999999978057e+00
	5.419719781702418e-08
	5.419719781702418e-08
	3.299999999978057e+00
	5.404555865697338e-08
	2.720122352809399e-08
	2.696329771499804e-08
	1.189629089267307e-10
	2.029367240683280e-11
	-2.029344081265816e-11
21		1.428000000000000e-10
	2.708226062399270e-08
	3.300000000000000e+00
	0.000000000000000e+00
	5.416452150136086e-08
	3.299999999978057e+00
	5.419719775477590e-08
	5.419719775477590e-08
	3.299999999978057e+00
	5.404555858965382e-08
	2.720122353529854e-08
	2.696329771268685e-08
	1.189629076560859e-10
	2.029367296577937e-11
	-2.029344084612665e-11
22		1.528000000000000e-10
	2.708226059064993e-08
	3.300000000000000e+00
	0.000000000000000e+00
	5.416452154988514e-08
	3.299999999978057e+00
	5.419719780221817e-08
	5.419719780221817e-08
	3.299999999978057e+00
	5.404555864211732e-08
	2.720122349700653e-08
	2.696329768429333e-08
	1.189629087987253e-10
	2.029367237952558e-11
	-2.029344082558498e-11
23		1.628000000000000e-10
	2.708226064071945e-08
	3.300000000000000e+00
	0.000000000000000e+00
	5.416452147479402e-08
	3.299999999978057e+00
	5.419719772822840e-08
	5.419719772822840e-08
	3.299999999978057e+00
	5.404555856301656e-08
	2.720122355212890e-08
	2.696329772931000e-08
	1.189629077253864e-10
	2.029367299857472e-11
	-2.029344085764031e-11
24		1.728000000000000e-10
	2.708226061898859e-08
	3.300000000000000e+00
	0.000000000000000e+00
	5.416452163265241e-08
	3.299999999978057e+00
	5.419719788492519e-08
	5.419719788492519e-08
	3.299999999978057e+00
	5.404555872510395e-08
	2.720122352552072e-08
	2.696329771245646e-08
	1.189629089161351e-10
	2.029367233593856e-11
	-2.029344077670401e-11
25		1.828000000000000e-10
	2.708226060982337e-08
	3.300000000000000e+00
	0.000000000000000e+00
	5.416452145997723e-08
	3.299999999978057e+00
	5.419719771342240e-08
	5.419719771342240e-08
	3.299999999978057e+00
	5.404555854816051e-08
	2.720122352104144e-08
	2.696329769860529e-08
	1.189629075973810e-10
	2.029367301001925e-11
	-2.029344087056714e-11
26		1.927999999999999e-10
	2.708226063571535e-08
	3.300000000000000e+00
	0.000000000000000e+00
	5.416452160608557e-08
	3.299999999978057e+00
	5.419719785837769e-08
	5.419719785837769e-08
	3.299999999978057e+00
	5.404555869846669e-08
	2.720122354235109e-08
	2.696329772907961e-08
	1.189629089854356e-10
	2.029367236079297e-11
	-2.029344078821768e-11
27		2.027999999999999e-10
	2.708226064071945e-08
	3.300000000000000e+00
	0.000000000000000e+00
	5.416452147479402e-08
	3.299999999978057e+00
	5.419719772822840e-08
	5.419719772822840e-08
	3.299999999978057e+00
	5.404555856301656e-08
	2.720122355212890e-08
	2.696329772931000e-08
	1.189629077253864e-10
	2.029367300746857e-11
	-2.029344085764031e-11
28		2.127999999999999e-10
	2.708226063571535e-08
	3.300000000000000e+00
	0.000000000000000e+00
	5.416452160608557e-08
	3.299999999978057e+00
	5.419719785837769e-08
	5.419719785837769e-08
	3.299999999978057e+00
	5.404555869846669e-08
	2.720122354235109e-08
	2.696329772907961e-08
	1.189629089854356e-10
	2.029367236142825e-11
	-2.029344078821768e-11
29		2.227999999999999e-10
	2.708226064071945e-08
	3.300000000000000e+00
	0.000000000000000e+00
	5.416452147479402e-08
	3.299999999978057e+00
	5.419719772822840e-08
	5.419719772822840e-08
	3.299999999978057e+00
	5.404555856301656e-08
	2.720122355212890e-08
	2.696329772931000e-08
	1.189629077253864e-10
	2.029367299921000e-11
	-2.029344085764031e-11
30		2.327999999999999e-10
	2.708226063571535e-08
	3.300000000000000e+00
	0.000000000000000e+00
	5.416452160608557e-08
	3.299999999978057e+00
	5.419719785837769e-08
	5.419719785837769e-08
	3.299999999978057e+00
	5.404555869846669e-08
	2.720122354235109e-08
	2.696329772907961e-08
	1.189629089854356e-10
	2.029367236142825e-11
	-2.029344078821768e-11
31		2.427999999999999e-10
	2.708226064071945e-08
	3.300000000000000e+00
	0.000000000000000e+00
	5.416452147479402e-08
	3.299999999978057e+00
	5.419719772822840e-08
	5.419719772822840e-08
	3.299999999978057e+00
	5.404555856301656e-08
	2.720122355212890e-08
	2.696329772931000e-08
	1.189629077253864e-10
	2.029367299921000e-11
	-2.029344085764031e-11
32		2.527999999999999e-10
	2.708226063571535e-08
	3.300000000000000e+00
	0.000000000000000e+00
	5.416452160608557e-08
	3.299999999978057e+00
	5.419719785837769e-08
	5.419719785837769e-08
	3.299999999978057e+00
	5.404555869846669e-08
	2.720122354235109e-08
	2.696329772907961e-08
	1.189629089854356e-10
	2.029367236142825e-11
	-2.029344078821768e-11
33		2.628000000000000e-10
	2.708226064071945e-08
	3.300000000000000e+00
	0.000000000000000e+00
	5.416452147479402e-08
	3.299999999978057e+00
	5.419719772822840e-08
	5.419719772822840e-08
	3.299999999978057e+00
	5.404555856301656e-08
	2.720122355212890e-08
	2.696329772931000e-08
	1.189629077253864e-10
	2.029367299921000e-11
	-2.029344085764031e-11
34		2.728000000000000e-10
	2.708226063571535e-08
	3.300000000000000e+00
	0.000000000000000e+00
	5.416452160608557e-08
	3.299999999978057e+00
	5.419719785837769e-08
	5.419719785837769e-08
	3.299999999978057e+00
	5.404555869846669e-08
	2.720122354235109e-08
	2.696329772907961e-08
	1.189629089854356e-10
	2.029367236142825e-11
	-2.029344078821768e-11
35		2.828000000000000e-10
	2.708226064071945e-08
	3.300000000000000e+00
	0.000000000000000e+00
	5.416452147479402e-08
	3.299999999978057e+00
	5.419719772822840e-08
	5.419719772822840e-08
	3.299999999978057e+00
	5.404555856301656e-08
	2.720122355212890e-08
	2.696329772931000e-08
	1.189629077253864e-10
	2.029367299921000e-11
	-2.029344085764031e-11
36		2.928000000000000e-10
	2.708226063571535e-08
	3.300000000000000e+00
	0.000000000000000e+00
	5.416452160608557e-08
	3.299999999978057e+00
	5.419719785837769e-08
	5.419719785837769e-08
	3.299999999978057e+00
	5.404555869846669e-08
	2.720122354235109e-08
	2.696329772907961e-08
	1.189629089854356e-10
	2.029367236142825e-11
	-2.029344078821768e-11
37		3.028000000000000e-10
	2.708226064071945e-08
	3.300000000000000e+00
	0.000000000000000e+00
	5.416452147479402e-08
	3.299999999978057e+00
	5.419719772822840e-08
	5.419719772822840e-08
	3.299999999978057e+00
	5.404555856301656e-08
	2.720122355212890e-08
	2.696329772931000e-08
	1.189629077253864e-10
	2.029367299921000e-11
	-2.029344085764031e-11
38		3.128000000000000e-10
	2.708226063571535e-08
	3.300000000000000e+00
	0.000000000000000e+00
	5.416452160608557e-08
	3.299999999978057e+00
	5.419719785837769e-08
	5.419719785837769e-08
	3.299999999978057e+00
	5.404555869846669e-08
	2.720122354235109e-08
	2.696329772907961e-08
	1.189629089854356e-10
	2.029367236142825e-11
	-2.029344078821768e-11
39		3.228000000000001e-10
	2.708226064071945e-08
	3.300000000000000e+00
	0.000000000000000e+00
	5.416452147479402e-08
	3.299999999978057e+00
	5.419719772822840e-08
	5.419719772822840e-08
	3.299999999978057e+00
	5.404555856301656e-08
	2.720122355212890e-08
	2.696329772931000e-08
	1.189629077253864e-10
	2.029367299921000e-11
	-2.029344085764031e-11
40		3.328000000000001e-10
	2.708226063571535e-08
	3.300000000000000e+00
	0.000000000000000e+00
	5.416452160608557e-08
	3.299999999978057e+00
	5.419719785837769e-08
	5.419719785837769e-08
	3.299999999978057e+00
	5.404555869846669e-08
	2.720122354235109e-08
	2.696329772907961e-08
	1.189629089854356e-10
	2.029367236142825e-11
	-2.029344078821768e-11
41		3.428000000000001e-10
	2.708226064071945e-08
	3.300000000000000e+00
	0.000000000000000e+00
	5.416452147479402e-08
	3.299999999978057e+00
	5.419719772822840e-08
	5.419719772822840e-08
	3.299999999978057e+00
	5.404555856301656e-08
	2.720122355212890e-08
	2.696329772931000e-08
	1.189629077253864e-10
	2.029367299921000e-11
	-2.029344085764031e-11
42		3.528000000000001e-10
	2.708226063571535e-08
	3.300000000000000e+00
	0.000000000000000e+00
	5.416452160608557e-08
	3.299999999978057e+00
	5.419719785837769e-08
	5.419719785837769e-08
	3.299999999978057e+00
	5.404555869846669e-08
	2.720122354235109e-08
	2.696329772907961e-08
	1.189629089854356e-10
	2.029367236142825e-11
	-2.029344078821768e-11
43		3.628000000000001e-10
	2.708226064071945e-08
	3.300000000000000e+00
	0.000000000000000e+00
	5.416452147479402e-08
	3.299999999978057e+00
	5.419719772822840e-08
	5.419719772822840e-08
	3.299999999978057e+00
	5.404555856301656e-08
	2.720122355212890e-08
	2.696329772931000e-08
	1.189629077253864e-10
	2.029367299921000e-11
	-2.029344085764031e-11
44		3.728000000000001e-10
	2.708226063571535e-08
	3.300000000000000e+00
	0.000000000000000e+00
	5.416452160608557e-08
	3.299999999978057e+00
	5.419719785837769e-08
	5.419719785837769e-08
	3.299999999978057e+00
	5.404555869846669e-08
	2.720122354235109e-08
	2.696329772907961e-08
	1.189629089854356e-10
	2.029367236142825e-11
	-2.029344078821768e-11
45		3.828000000000002e-10
	2.708226064071945e-08
	3.300000000000000e+00
	0.000000000000000e+00
	5.416452147479402e-08
	3.299999999978057e+00
	5.419719772822840e-08
	5.419719772822840e-08
	3.299999999978057e+00
	5.404555856301656e-08
	2.720122355212890e-08
	2.696329772931000e-08
	1.189629077253864e-10
	2.029367299921000e-11
	-2.029344085764031e-11
46		3.928000000000002e-10
	2.708226063571535e-08
	3.300000000000000e+00
	0.000000000000000e+00
	5.416452160608557e-08
	3.299999999978057e+00
	5.419719785837769e-08
	5.419719785837769e-08
	3.299999999978057e+00
	5.404555869846669e-08
	2.720122354235109e-08
	2.696329772907961e-08
	1.189629089854356e-10
	2.029367236142825e-11
	-2.029344078821768e-11
47		4.028000000000002e-10
	2.708226064071945e-08
	3.300000000000000e+00
	0.000000000000000e+00
	5.416452147479402e-08
	3.299999999978057e+00
	5.419719772822840e-08
	5.419719772822840e-08
	3.299999999978057e+00
	5.404555856301656e-08
	2.720122355212890e-08
	2.696329772931000e-08
	1.189629077253864e-10
	2.029367299921000e-11
	-2.029344085764031e-11
48		4.128000000000002e-10
	2.708226063571535e-08
	3.300000000000000e+00
	0.000000000000000e+00
	5.416452160608557e-08
	3.299999999978057e+00
	5.419719785837769e-08
	5.419719785837769e-08
	3.299999999978057e+00
	5.404555869846669e-08
	2.720122354235109e-08
	2.696329772907961e-08
	1.189629089854356e-10
	2.029367236142825e-11
	-2.029344078821768e-11
49		4.228000000000002e-10
	2.708226064071945e-08
	3.300000000000000e+00
	0.000000000000000e+00
	5.416452147479402e-08
	3.299999999978057e+00
	5.419719772822840e-08
	5.419719772822840e-08
	3.299999999978057e+00
	5.404555856301656e-08
	2.720122355212890e-08
	2.696329772931000e-08
	1.189629077253864e-10
	2.029367299921000e-11
	-2.029344085764031e-11
50		4.328000000000003e-10
	2.708226063571535e-08
	3.300000000000000e+00
	0.000000000000000e+00
	5.416452160608557e-08
	3.299999999978057e+00
	5.419719785837769e-08
	5.419719785837769e-08
	3.299999999978057e+00
	5.404555869846669e-08
	2.720122354235109e-08
	2.696329772907961e-08
	1.189629089854356e-10
	2.029367236142825e-11
	-2.029344078821768e-11
51		4.428000000000003e-10
	2.708226064071945e-08
	3.300000000000000e+00
	0.000000000000000e+00
	5.416452147479402e-08
	3.299999999978057e+00
	5.419719772822840e-08
	5.419719772822840e-08
	3.299999999978057e+00
	5.404555856301656e-08
	2.720122355212890e-08
	2.696329772931000e-08
	1.189629077253864e-10
	2.029367299921000e-11
	-2.029344085764031e-11
52		4.528000000000003e-10
	2.708226063571535e-08
	3.300000000000000e+00
	0.000000000000000e+00
	5.416452160608557e-08
	3.299999999978057e+00
	5.419719785837769e-08
	5.419719785837769e-08
	3.299999999978057e+00
	5.404555869846669e-08
	2.720122354235109e-08
	2.696329772907961e-08
	1.189629089854356e-10
	2.029367236142825e-11
	-2.029344078821768e-11
53		4.628000000000003e-10
	2.708226064071945e-08
	3.300000000000000e+00
	0.000000000000000e+00
	5.416452147479402e-08
	3.299999999978057e+00
	5.419719772822840e-08
	5.419719772822840e-08
	3.299999999978057e+00
	5.404555856301656e-08
	2.720122355212890e-08
	2.696329772931000e-08
	1.189629077253864e-10
	2.029367299921000e-11
	-2.029344085764031e-11
54		4.728000000000003e-10
	2.708226063571535e-08
	3.300000000000000e+00
	0.000000000000000e+00
	5.416452160608557e-08
	3.299999999978057e+00
	5.419719785837769e-08
	5.419719785837769e-08
	3.299999999978057e+00
	5.404555869846669e-08
	2.720122354235109e-08
	2.696329772907961e-08
	1.189629089854356e-10
	2.029367236142825e-11
	-2.029344078821768e-11
55		4.828000000000002e-10
	2.708226064071945e-08
	3.300000000000000e+00
	0.000000000000000e+00
	5.416452147479402e-08
	3.299999999978057e+00
