Title: *** SPICE deck for cell tb_nor3{lay} from library lab2
Date: Wed Mar 04 15:09:55  2020
Plotname: Transient Analysis
Flags: real
No. Variables: 20
No. Points: 1008    
Command: version 1.06.00
Variables:
	0	time	time
	1	nor_out	voltage
	2	gnd	voltage
	3	Xmynor3@0:net@47	voltage
	4	vdd	voltage
	5	Xmynor3@0:net@50	voltage
	6	M:Xmynor3@0:Mpmos@2#drain	voltage
	7	M:Xmynor3@0:Mpmos@2#source	voltage
	8	M:Xmynor3@0:Mpmos@1#drain	voltage
	9	M:Xmynor3@0:Mpmos@1#source	voltage
	10	M:Xmynor3@0:Mpmos@0#drain	voltage
	11	M:Xmynor3@0:Mpmos@0#source	voltage
	12	M:Xmynor3@0:Mnmos@9#drain	voltage
	13	M:Xmynor3@0:Mnmos@9#source	voltage
	14	M:Xmynor3@0:Mnmos@7#drain	voltage
	15	M:Xmynor3@0:Mnmos@7#source	voltage
	16	M:Xmynor3@0:Mnmos@0#drain	voltage
	17	M:Xmynor3@0:Mnmos@0#source	voltage
	18	vgnd#branch	current
	19	vsupply#branch	current
Values:
0		0.000000000000000e+00
	3.299999778695029e+00
	0.000000000000000e+00
	3.299999926265356e+00
	3.300000000000000e+00
	3.299999852528338e+00
	3.299999778775210e+00
	3.299999852448158e+00
	3.299999852608518e+00
	3.299999926185175e+00
	3.299999926345536e+00
	3.299999999919819e+00
	3.299999778646377e+00
	2.911297389574231e-11
	3.299999778646377e+00
	2.911297389574231e-11
	3.299999778646377e+00
	2.911297389574231e-11
	2.489799185250192e-11
	-2.489833950449000e-11
1		1.000000000000000e-13
	3.299999778695446e+00
	0.000000000000000e+00
	3.299999926265453e+00
	3.300000000000000e+00
	3.299999852527223e+00
	3.299999778775689e+00
	3.299999852446983e+00
	3.299999852607463e+00
	3.299999926185280e+00
	3.299999926345626e+00
	3.299999999919820e+00
	3.299999778646757e+00
	2.911296741567327e-11
	3.299999778646757e+00
	2.911296741567327e-11
	3.299999778646757e+00
	2.911296741567327e-11
	2.490584972484580e-11
	-2.490622837567828e-11
2		2.000000000000000e-13
	3.299999778695858e+00
	0.000000000000000e+00
	3.299999926265545e+00
	3.300000000000000e+00
	3.299999852526150e+00
	3.299999778776105e+00
	3.299999852445908e+00
	3.299999852606392e+00
	3.299999926185372e+00
	3.299999926345718e+00
	3.299999999919821e+00
	3.299999778647166e+00
	2.911296741567618e-11
	3.299999778647166e+00
	2.911296741567618e-11
	3.299999778647166e+00
	2.911296741567618e-11
	2.490733471082168e-11
	-2.490730174260531e-11
3		4.000000000000000e-13
	3.299999778696665e+00
	0.000000000000000e+00
	3.299999926265688e+00
	3.300000000000000e+00
	3.299999852524069e+00
	3.299999778776910e+00
	3.299999852443828e+00
	3.299999852604311e+00
	3.299999926185513e+00
	3.299999926345863e+00
	3.299999999919821e+00
	3.299999778647974e+00
	2.911296741568193e-11
	3.299999778647974e+00
	2.911296741568193e-11
	3.299999778647974e+00
	2.911296741568193e-11
	2.490711206482336e-11
	-2.490763282406746e-11
4		8.000000000000000e-13
	3.299999778698215e+00
	0.000000000000000e+00
	3.299999926265772e+00
	3.300000000000000e+00
	3.299999852520247e+00
	3.299999778778456e+00
	3.299999852440008e+00
	3.299999852600487e+00
	3.299999926185594e+00
	3.299999926345951e+00
	3.299999999919822e+00
	3.299999778649527e+00
	2.911301605627808e-11
	3.299999778649527e+00
	2.911301605627808e-11
	3.299999778649527e+00
	2.911301605627808e-11
	2.490664256547213e-11
	-2.490629244525041e-11
5		1.600000000000000e-12
	3.299999778701072e+00
	0.000000000000000e+00
	3.299999926265378e+00
	3.300000000000000e+00
	3.299999852513754e+00
	3.299999778781307e+00
	3.299999852433518e+00
	3.299999852593991e+00
	3.299999926185194e+00
	3.299999926345561e+00
	3.299999999919823e+00
	3.299999778652387e+00
	2.911294744884003e-11
	3.299999778652387e+00
	2.911294744884003e-11
	3.299999778652387e+00
	2.911294744884003e-11
	2.490565521050573e-11
	-2.490562665363695e-11
6		3.200000000000000e-12
	3.299999778705920e+00
	0.000000000000000e+00
	3.299999926263167e+00
	3.300000000000000e+00
	3.299999852504222e+00
	3.299999778786144e+00
	3.299999852423991e+00
	3.299999852584452e+00
	3.299999926182976e+00
	3.299999926343358e+00
	3.299999999919821e+00
	3.299999778657241e+00
	2.911300180880634e-11
	3.299999778657241e+00
	2.911300180880634e-11
	3.299999778657241e+00
	2.911300180880634e-11
	2.490403496289730e-11
	-2.490454371608465e-11
7		6.400000000000000e-12
	3.299999778713304e+00
	0.000000000000000e+00
	3.299999926257009e+00
	3.300000000000000e+00
	3.299999852493331e+00
	3.299999778793516e+00
	3.299999852413109e+00
	3.299999852573552e+00
	3.299999926176810e+00
	3.299999926337208e+00
	3.299999999919814e+00
	3.299999778664634e+00
	2.911294316456823e-11
	3.299999778664634e+00
	2.911294316456823e-11
	3.299999778664634e+00
	2.911294316456823e-11
	2.490313799396967e-11
	-2.490353030299667e-11
8		1.280000000000000e-11
	3.299999778723103e+00
	0.000000000000000e+00
	3.299999926247638e+00
	3.300000000000000e+00
	3.299999852486037e+00
	3.299999778803301e+00
	3.299999852405827e+00
	3.299999852566246e+00
	3.299999926167434e+00
	3.299999926327841e+00
	3.299999999919804e+00
	3.299999778674440e+00
	2.911300121456269e-11
	3.299999778674440e+00
	2.911300121456269e-11
	3.299999778674440e+00
	2.911300121456269e-11
	2.490297709646145e-11
	-2.490244121312644e-11
9		2.280000000000000e-11
	3.299999778732554e+00
	0.000000000000000e+00
	3.299999926242920e+00
	3.300000000000000e+00
	3.299999852486342e+00
	3.299999778812747e+00
	3.299999852406141e+00
	3.299999852566543e+00
	3.299999926162717e+00
	3.299999926323122e+00
	3.299999999919797e+00
	3.299999778683895e+00
	2.911294738737700e-11
	3.299999778683895e+00
	2.911294738737700e-11
	3.299999778683895e+00
	2.911294738737700e-11
	2.490266203003652e-11
	-2.490300885252074e-11
10		3.280000000000000e-11
	3.299999778739038e+00
	0.000000000000000e+00
	3.299999926243746e+00
	3.300000000000000e+00
	3.299999852489144e+00
	3.299999778819228e+00
	3.299999852408946e+00
	3.299999852569342e+00
	3.299999926163545e+00
	3.299999926323947e+00
	3.299999999919798e+00
	3.299999778690381e+00
	2.911300128196368e-11
	3.299999778690381e+00
	2.911300128196368e-11
	3.299999778690381e+00
	2.911300128196368e-11
	2.490188124176259e-11
	-2.490228550067746e-11
11		4.280000000000000e-11
	3.299999778744516e+00
	0.000000000000000e+00
	3.299999926245414e+00
	3.300000000000000e+00
	3.299999852492865e+00
	3.299999778824705e+00
	3.299999852412669e+00
	3.299999852573060e+00
	3.299999926165215e+00
	3.299999926325613e+00
	3.299999999919800e+00
	3.299999778695859e+00
	2.911294802152514e-11
	3.299999778695859e+00
	2.911294802152514e-11
	3.299999778695859e+00
	2.911294802152514e-11
	2.490201012354299e-11
	-2.490188940477792e-11
12		5.279999999999999e-11
	3.299999778749565e+00
	0.000000000000000e+00
	3.299999926247068e+00
	3.300000000000000e+00
	3.299999852496491e+00
	3.299999778829752e+00
	3.299999852416297e+00
	3.299999852576684e+00
	3.299999926166871e+00
	3.299999926327265e+00
	3.299999999919802e+00
	3.299999778700909e+00
	2.911300017245371e-11
	3.299999778700909e+00
	2.911300017245371e-11
	3.299999778700909e+00
	2.911300017245371e-11
	2.490135610722274e-11
	-2.490162172579651e-11
13		6.279999999999999e-11
	3.299999778753924e+00
	0.000000000000000e+00
	3.299999926248838e+00
	3.300000000000000e+00
	3.299999852499763e+00
	3.299999778834111e+00
	3.299999852419571e+00
	3.299999852579956e+00
	3.299999926168642e+00
	3.299999926329033e+00
	3.299999999919804e+00
	3.299999778705268e+00
	2.911294928970639e-11
	3.299999778705268e+00
	2.911294928970639e-11
	3.299999778705268e+00
	2.911294928970639e-11
	2.490114223002713e-11
	-2.490103330476648e-11
14		7.280000000000000e-11
	3.299999778757896e+00
	0.000000000000000e+00
	3.299999926250663e+00
	3.300000000000000e+00
	3.299999852502858e+00
	3.299999778838082e+00
	3.299999852422667e+00
	3.299999852583049e+00
	3.299999926170469e+00
	3.299999926330857e+00
	3.299999999919805e+00
	3.299999778709241e+00
	2.911299874589966e-11
	3.299999778709241e+00
	2.911299874589966e-11
	3.299999778709241e+00
	2.911299874589966e-11
	2.490087234963355e-11
	-2.490051384598265e-11
15		8.280000000000000e-11
	3.299999778761608e+00
	0.000000000000000e+00
	3.299999926252122e+00
	3.300000000000000e+00
	3.299999852505488e+00
	3.299999778841794e+00
	3.299999852425298e+00
	3.299999852585678e+00
	3.299999926171929e+00
	3.299999926332314e+00
	3.299999999919808e+00
	3.299999778712953e+00
	2.911294754612054e-11
	3.299999778712953e+00
	2.911294754612054e-11
	3.299999778712953e+00
	2.911294754612054e-11
	2.490059793793135e-11
	-2.490024933834553e-11
16		9.280000000000001e-11
	3.299999778764713e+00
	0.000000000000000e+00
	3.299999926253295e+00
	3.300000000000000e+00
	3.299999852507923e+00
	3.299999778844898e+00
	3.299999852427733e+00
	3.299999852588112e+00
	3.299999926173104e+00
	3.299999926333486e+00
	3.299999999919808e+00
	3.299999778716059e+00
	2.911300001406039e-11
	3.299999778716059e+00
	2.911300001406039e-11
	3.299999778716059e+00
	2.911300001406039e-11
	2.490002948692067e-11
	-2.490032360021218e-11
17		1.028000000000000e-10
	3.299999778767396e+00
	0.000000000000000e+00
	3.299999926254505e+00
	3.300000000000000e+00
	3.299999852509869e+00
	3.299999778847581e+00
	3.299999852429680e+00
	3.299999852590057e+00
	3.299999926174315e+00
	3.299999926334695e+00
	3.299999999919809e+00
	3.299999778718742e+00
	2.911294833873309e-11
	3.299999778718742e+00
	2.911294833873309e-11
	3.299999778718742e+00
	2.911294833873309e-11
	2.489997939053343e-11
	-2.490055623521710e-11
18		1.128000000000000e-10
	3.299999778769886e+00
	0.000000000000000e+00
	3.299999926255468e+00
	3.300000000000000e+00
	3.299999852511621e+00
	3.299999778850069e+00
	3.299999852431434e+00
	3.299999852591808e+00
	3.299999926175279e+00
	3.299999926335656e+00
	3.299999999919811e+00
	3.299999778721232e+00
	2.911300001410138e-11
	3.299999778721232e+00
	2.911300001410138e-11
	3.299999778721232e+00
	2.911300001410138e-11
	2.489968062321939e-11
	-2.489973795633849e-11
19		1.228000000000000e-10
	3.299999778772035e+00
	0.000000000000000e+00
	3.299999926255969e+00
	3.300000000000000e+00
	3.299999852513298e+00
	3.299999778852219e+00
	3.299999852433111e+00
	3.299999852593484e+00
	3.299999926175781e+00
	3.299999926336157e+00
	3.299999999919811e+00
	3.299999778723381e+00
	2.911294691214982e-11
	3.299999778723381e+00
	2.911294691214982e-11
	3.299999778723381e+00
	2.911294691214982e-11
	2.489942407578615e-11
	-2.490004796383268e-11
20		1.328000000000000e-10
	3.299999778773977e+00
	0.000000000000000e+00
	3.299999926256476e+00
	3.300000000000000e+00
	3.299999852514643e+00
	3.299999778854159e+00
	3.299999852434457e+00
	3.299999852594828e+00
	3.299999926176289e+00
	3.299999926336664e+00
	3.299999999919812e+00
	3.299999778725324e+00
	2.911300159926719e-11
	3.299999778725324e+00
	2.911300159926719e-11
	3.299999778725324e+00
	2.911300159926719e-11
	2.489934650485295e-11
	-2.489966245002163e-11
21		1.428000000000000e-10
	3.299999778776074e+00
	0.000000000000000e+00
	3.299999926257389e+00
	3.300000000000000e+00
	3.299999852515956e+00
	3.299999778856257e+00
	3.299999852435771e+00
	3.299999852596141e+00
	3.299999926177203e+00
	3.299999926337576e+00
	3.299999999919813e+00
	3.299999778727420e+00
	2.911294818028853e-11
	3.299999778727420e+00
	2.911294818028853e-11
	3.299999778727420e+00
	2.911294818028853e-11
	2.489971435590947e-11
	-2.489911052610605e-11
22		1.528000000000000e-10
	3.299999778777887e+00
	0.000000000000000e+00
	3.299999926258235e+00
	3.300000000000000e+00
	3.299999852517370e+00
	3.299999778858069e+00
	3.299999852437185e+00
	3.299999852597554e+00
	3.299999926178049e+00
	3.299999926338421e+00
	3.299999999919813e+00
	3.299999778729235e+00
	2.911300033119146e-11
	3.299999778729235e+00
	2.911300033119146e-11
	3.299999778729235e+00
	2.911300033119146e-11
	2.489902745268801e-11
	-2.489921128247507e-11
23		1.628000000000000e-10
	3.299999778779295e+00
	0.000000000000000e+00
	3.299999926258936e+00
	3.300000000000000e+00
	3.299999852518521e+00
	3.299999778859478e+00
	3.299999852438337e+00
	3.299999852598706e+00
	3.299999926178751e+00
	3.299999926339121e+00
	3.299999999919815e+00
	3.299999778730643e+00
	2.911294770477404e-11
	3.299999778730643e+00
	2.911294770477404e-11
	3.299999778730643e+00
	2.911294770477404e-11
	2.489912398405669e-11
	-2.489900793564600e-11
24		1.728000000000000e-10
	3.299999778780544e+00
	0.000000000000000e+00
	3.299999926259591e+00
	3.300000000000000e+00
	3.299999852519590e+00
	3.299999778860726e+00
	3.299999852439406e+00
	3.299999852599774e+00
	3.299999926179407e+00
	3.299999926339776e+00
	3.299999999919816e+00
	3.299999778731892e+00
	2.911300033121250e-11
	3.299999778731892e+00
	2.911300033121250e-11
	3.299999778731892e+00
	2.911300033121250e-11
	2.489880703610688e-11
	-2.489884211280001e-11
25		1.828000000000000e-10
	3.299999778781830e+00
	0.000000000000000e+00
	3.299999926260007e+00
	3.300000000000000e+00
	3.299999852520435e+00
	3.299999778862012e+00
	3.299999852440251e+00
	3.299999852600619e+00
	3.299999926179824e+00
	3.299999926340191e+00
	3.299999999919815e+00
	3.299999778733177e+00
	2.911294818033414e-11
	3.299999778733177e+00
	2.911294818033414e-11
	3.299999778733177e+00
	2.911294818033414e-11
	2.489903293172063e-11
	-2.489914226866575e-11
26		1.927999999999999e-10
	3.299999778782987e+00
	0.000000000000000e+00
	3.299999926260432e+00
	3.300000000000000e+00
	3.299999852521230e+00
	3.299999778863167e+00
	3.299999852441048e+00
	3.299999852601413e+00
	3.299999926180249e+00
	3.299999926340616e+00
	3.299999999919816e+00
	3.299999778734334e+00
	2.911300001420518e-11
	3.299999778734334e+00
	2.911300001420518e-11
	3.299999778734334e+00
	2.911300001420518e-11
	2.489864885993023e-11
	-2.489880655260988e-11
27		2.027999999999999e-10
	3.299999778783947e+00
	0.000000000000000e+00
	3.299999926260877e+00
	3.300000000000000e+00
	3.299999852522058e+00
	3.299999778864128e+00
	3.299999852441876e+00
	3.299999852602241e+00
	3.299999926180694e+00
	3.299999926341060e+00
	3.299999999919816e+00
	3.299999778735295e+00
	2.911294611967750e-11
	3.299999778735295e+00
	2.911294611967750e-11
	3.299999778735295e+00
	2.911294611967750e-11
	2.489881737030588e-11
	-2.489899816782087e-11
28		2.127999999999999e-10
	3.299999778784853e+00
	0.000000000000000e+00
	3.299999926261199e+00
	3.300000000000000e+00
	3.299999852522741e+00
	3.299999778865033e+00
	3.299999852442559e+00
	3.299999852602923e+00
	3.299999926181016e+00
	3.299999926341382e+00
	3.299999999919816e+00
	3.299999778736201e+00
	2.911300064827333e-11
	3.299999778736201e+00
	2.911300064827333e-11
	3.299999778736201e+00
	2.911300064827333e-11
	2.489850805359353e-11
	-2.489882611960036e-11
29		2.227999999999999e-10
	3.299999778785512e+00
	0.000000000000000e+00
	3.299999926261603e+00
	3.300000000000000e+00
	3.299999852523327e+00
	3.299999778865694e+00
	3.299999852443145e+00
	3.299999852603509e+00
	3.299999926181421e+00
	3.299999926341786e+00
	3.299999999919817e+00
	3.299999778736860e+00
	2.911294833887666e-11
	3.299999778736860e+00
	2.911294833887666e-11
	3.299999778736860e+00
	2.911294833887666e-11
	2.489853071474242e-11
	-2.489866816569045e-11
30		2.327999999999999e-10
	3.299999778786043e+00
	0.000000000000000e+00
	3.299999926261842e+00
	3.300000000000000e+00
	3.299999852523673e+00
	3.299999778866224e+00
	3.299999852443491e+00
	3.299999852603854e+00
	3.299999926181659e+00
	3.299999926342024e+00
	3.299999999919817e+00
	3.299999778737391e+00
	2.911300048976941e-11
	3.299999778737391e+00
	2.911300048976941e-11
	3.299999778737391e+00
	2.911300048976941e-11
	2.489824094974748e-11
	-2.489865355167219e-11
31		2.427999999999999e-10
	3.299999778786511e+00
	0.000000000000000e+00
	3.299999926261965e+00
	3.300000000000000e+00
	3.299999852524075e+00
	3.299999778866693e+00
	3.299999852443894e+00
	3.299999852604257e+00
	3.299999926181783e+00
	3.299999926342146e+00
	3.299999999919817e+00
	3.299999778737859e+00
	2.911294722929119e-11
	3.299999778737859e+00
	2.911294722929119e-11
	3.299999778737859e+00
	2.911294722929119e-11
	2.489843407217420e-11
	-2.489870345461828e-11
32		2.527999999999999e-10
	3.299999778786840e+00
	0.000000000000000e+00
	3.299999926262149e+00
	3.300000000000000e+00
	3.299999852524398e+00
	3.299999778867020e+00
	3.299999852444217e+00
	3.299999852604580e+00
	3.299999926181967e+00
	3.299999926342331e+00
	3.299999999919818e+00
	3.299999778738188e+00
	2.911300064828906e-11
	3.299999778738188e+00
	2.911300064828906e-11
	3.299999778738188e+00
	2.911300064828906e-11
	2.489807527994976e-11
	-2.489836350969748e-11
33		2.628000000000000e-10
	3.299999778787102e+00
	0.000000000000000e+00
	3.299999926262308e+00
	3.300000000000000e+00
	3.299999852524529e+00
	3.299999778867284e+00
	3.299999852444348e+00
	3.299999852604711e+00
	3.299999926182127e+00
	3.299999926342490e+00
	3.299999999919819e+00
	3.299999778738450e+00
	2.911294944848262e-11
	3.299999778738450e+00
	2.911294944848262e-11
	3.299999778738450e+00
	2.911294944848262e-11
	2.489829857146659e-11
	-2.489841392313974e-11
34		2.728000000000000e-10
	3.299999778787366e+00
	0.000000000000000e+00
	3.299999926262364e+00
	3.300000000000000e+00
	3.299999852524644e+00
	3.299999778867547e+00
	3.299999852444463e+00
	3.299999852604826e+00
	3.299999926182182e+00
	3.299999926342545e+00
	3.299999999919819e+00
	3.299999778738715e+00
	2.911299811207981e-11
	3.299999778738715e+00
	2.911299811207981e-11
	3.299999778738715e+00
	2.911299811207981e-11
	2.489804109785576e-11
	-2.489824896474381e-11
35		2.828000000000000e-10
	3.299999778787507e+00
	0.000000000000000e+00
	3.299999926262354e+00
	3.300000000000000e+00
	3.299999852524837e+00
	3.299999778867688e+00
	3.299999852444655e+00
	3.299999852605018e+00
	3.299999926182172e+00
	3.299999926342536e+00
	3.299999999919819e+00
	3.299999778738855e+00
	2.911295039956586e-11
	3.299999778738855e+00
	2.911295039956586e-11
	3.299999778738855e+00
	2.911295039956586e-11
	2.489815704674007e-11
	-2.489833473667648e-11
36		2.928000000000000e-10
	3.299999778787674e+00
	0.000000000000000e+00
	3.299999926262509e+00
	3.300000000000000e+00
	3.299999852525207e+00
	3.299999778867855e+00
	3.299999852445026e+00
	3.299999852605389e+00
	3.299999926182327e+00
	3.299999926342690e+00
	3.299999999919819e+00
	3.299999778739022e+00
	2.911299779505557e-11
	3.299999778739022e+00
	2.911299779505557e-11
	3.299999778739022e+00
	2.911299779505557e-11
	2.489817263683146e-11
	-2.489812441601339e-11
37		3.028000000000000e-10
	3.299999778787846e+00
	0.000000000000000e+00
	3.299999926262611e+00
	3.300000000000000e+00
	3.299999852525363e+00
	3.299999778868028e+00
	3.299999852445181e+00
	3.299999852605545e+00
	3.299999926182430e+00
	3.299999926342792e+00
	3.299999999919818e+00
	3.299999778739195e+00
	2.911295008254188e-11
	3.299999778739195e+00
	2.911295008254188e-11
	3.299999778739195e+00
	2.911295008254188e-11
	2.489808614942065e-11
	-2.489870308732362e-11
38		3.128000000000000e-10
	3.299999778787866e+00
	0.000000000000000e+00
	3.299999926262438e+00
	3.300000000000000e+00
	3.299999852525235e+00
	3.299999778868047e+00
	3.299999852445053e+00
	3.299999852605416e+00
	3.299999926182257e+00
	3.299999926342620e+00
	3.299999999919818e+00
	3.299999778739215e+00
	2.911299906316381e-11
	3.299999778739215e+00
	2.911299906316381e-11
	3.299999778739215e+00
	2.911299906316381e-11
	2.489783460189054e-11
	-2.489869629025479e-11
39		3.228000000000001e-10
	3.299999778787828e+00
	0.000000000000000e+00
	3.299999926262377e+00
	3.300000000000000e+00
	3.299999852525094e+00
	3.299999778868009e+00
	3.299999852444913e+00
	3.299999852605276e+00
	3.299999926182196e+00
	3.299999926342559e+00
	3.299999999919819e+00
	3.299999778739177e+00
	2.911294802186833e-11
	3.299999778739177e+00
	2.911294802186833e-11
	3.299999778739177e+00
	2.911294802186833e-11
	2.489804959772551e-11
	-2.489865462872752e-11
40		3.328000000000001e-10
	3.299999778787886e+00
	0.000000000000000e+00
	3.299999926262533e+00
	3.300000000000000e+00
	3.299999852525266e+00
	3.299999778868067e+00
	3.299999852445084e+00
	3.299999852605447e+00
	3.299999926182351e+00
	3.299999926342714e+00
	3.299999999919819e+00
	3.299999778739235e+00
	2.911300017275734e-11
	3.299999778739235e+00
	2.911300017275734e-11
	3.299999778739235e+00
	2.911300017275734e-11
	2.489809772875808e-11
	-2.489817775087228e-11
41		3.428000000000001e-10
	3.299999778788077e+00
	0.000000000000000e+00
	3.299999926262776e+00
	3.300000000000000e+00
	3.299999852525560e+00
