Title: *** SPICE deck for cell tb_nand{lay} from library lab2
Date: Tue Mar 03 17:22:39  2020
Plotname: Transient Analysis
Flags: real
No. Variables: 15
No. Points: 1008    
Command: version 1.06.00
Variables:
	0	time	time
	1	Xmynand@0:net@0	voltage
	2	vdd	voltage
	3	gnd	voltage
	4	nand_out	voltage
	5	M:Xmynand@0:Mpmos@1#drain	voltage
	6	M:Xmynand@0:Mpmos@1#source	voltage
	7	M:Xmynand@0:Mpmos@0#drain	voltage
	8	M:Xmynand@0:Mpmos@0#source	voltage
	9	M:Xmynand@0:Mnmos@1#drain	voltage
	10	M:Xmynand@0:Mnmos@1#source	voltage
	11	M:Xmynand@0:Mnmos@0#drain	voltage
	12	M:Xmynand@0:Mnmos@0#source	voltage
	13	vgnd#branch	current
	14	vsupply#branch	current
Values:
0		0.000000000000000e+00
	6.627654955319143e-09
	3.300000000000000e+00
	0.000000000000000e+00
	3.299999975421514e+00
	3.299999999973273e+00
	3.299999975448240e+00
	3.299999975421514e+00
	3.300000000000000e+00
	3.299999975372863e+00
	6.656767928419659e-09
	6.598541982218628e-09
	2.911297306127428e-11
	8.299330687231825e-12
	-8.299361316549628e-12
1		1.000000000000000e-13
	6.627655047523059e-09
	3.300000000000000e+00
	0.000000000000000e+00
	3.299999975421516e+00
	3.299999999973274e+00
	3.299999975448241e+00
	3.299999975421516e+00
	3.300000000000000e+00
	3.299999975372864e+00
	6.656768031130714e-09
	6.598542063915404e-09
	2.911298059686358e-11
	8.299364783425628e-12
	-8.299066302295729e-12
2		2.000000000000000e-13
	6.627654959626220e-09
	3.300000000000000e+00
	0.000000000000000e+00
	3.299999975421517e+00
	3.299999999973274e+00
	3.299999975448244e+00
	3.299999975421517e+00
	3.300000000000001e+00
	3.299999975372866e+00
	6.656767935577823e-09
	6.598541983674618e-09
	2.911298107306163e-11
	8.299355850932361e-12
	-8.299307488467515e-12
3		4.000000000000000e-13
	6.627655018224112e-09
	3.300000000000000e+00
	0.000000000000000e+00
	3.299999975421525e+00
	3.299999999973273e+00
	3.299999975448251e+00
	3.299999975421525e+00
	3.300000000000001e+00
	3.299999975372873e+00
	6.656767999279750e-09
	6.598542037168475e-09
	2.911298075559626e-11
	8.299437240423381e-12
	-8.299553229455298e-12
4		8.000000000000000e-13
	6.627655032090894e-09
	3.300000000000000e+00
	0.000000000000000e+00
	3.299999975421537e+00
	3.299999999973274e+00
	3.299999975448264e+00
	3.299999975421538e+00
	3.300000000000000e+00
	3.299999975372886e+00
	6.656768011235914e-09
	6.598542052945874e-09
	2.911297838373103e-11
	8.299344280046356e-12
	-8.299738155133635e-12
5		1.600000000000000e-12
	6.627654767697053e-09
	3.300000000000000e+00
	0.000000000000000e+00
	3.299999975421534e+00
	3.299999999973274e+00
	3.299999975448260e+00
	3.299999975421534e+00
	3.300000000000000e+00
	3.299999975372883e+00
	6.656767739061010e-09
	6.598541796333097e-09
	2.911297514064428e-11
	8.299295920908677e-12
	-8.298887857367047e-12
6		3.200000000000000e-12
	6.627655561586959e-09
	3.300000000000000e+00
	0.000000000000000e+00
	3.299999975421525e+00
	3.299999999973274e+00
	3.299999975448251e+00
	3.299999975421525e+00
	3.299999999999999e+00
	3.299999975372873e+00
	6.656768538584125e-09
	6.598542584589793e-09
	2.911297264350811e-11
	8.299340297852011e-12
	-8.299007119211679e-12
7		6.400000000000000e-12
	6.627654832294431e-09
	3.300000000000000e+00
	0.000000000000000e+00
	3.299999975421552e+00
	3.299999999973274e+00
	3.299999975448278e+00
	3.299999975421552e+00
	3.300000000000000e+00
	3.299999975372900e+00
	6.656767801472822e-09
	6.598541863116041e-09
	2.911297852523778e-11
	8.299353205043123e-12
	-8.299156088634951e-12
8		1.280000000000000e-11
	6.627655237092443e-09
	3.300000000000000e+00
	0.000000000000000e+00
	3.299999975421593e+00
	3.299999999973274e+00
	3.299999975448320e+00
	3.299999975421593e+00
	3.300000000000000e+00
	3.299999975372942e+00
	6.656768215148607e-09
	6.598542259036279e-09
	2.911296772826545e-11
	8.299334438890769e-12
	-8.298616618663633e-12
9		2.280000000000000e-11
	6.627655432965748e-09
	3.300000000000000e+00
	0.000000000000000e+00
	3.299999975421634e+00
	3.299999999973274e+00
	3.299999975448360e+00
	3.299999975421633e+00
	3.300000000000000e+00
	3.299999975372982e+00
	6.656768404043629e-09
	6.598542461887868e-09
	2.911298114573424e-11
	8.299342482824260e-12
	-8.298666125293166e-12
10		3.280000000000000e-11
	6.627654838615598e-09
	3.300000000000000e+00
	0.000000000000000e+00
	3.299999975421658e+00
	3.299999999973274e+00
	3.299999975448384e+00
	3.299999975421658e+00
	3.300000000000001e+00
	3.299999975373006e+00
	6.656767814444478e-09
	6.598541862786720e-09
	2.911296588825778e-11
	8.299327667508597e-12
	-8.298779155836529e-12
11		4.280000000000000e-11
	6.627654861029209e-09
	3.300000000000000e+00
	0.000000000000000e+00
	3.299999975421691e+00
	3.299999999973274e+00
	3.299999975448417e+00
	3.299999975421691e+00
	3.300000000000000e+00
	3.299999975373039e+00
	6.656767830159647e-09
	6.598541891898772e-09
	2.911297867498222e-11
	8.299345970167418e-12
	-8.299040983432300e-12
12		5.279999999999999e-11
	6.627655015377380e-09
	3.300000000000000e+00
	0.000000000000000e+00
	3.299999975421752e+00
	3.299999999973274e+00
	3.299999975448478e+00
	3.299999975421752e+00
	3.300000000000000e+00
	3.299999975373100e+00
	6.656767992353370e-09
	6.598542038401391e-09
	2.911296730614739e-11
	8.299338332736200e-12
	-8.298597776169112e-12
13		6.279999999999999e-11
	6.627655037971339e-09
	3.300000000000000e+00
	0.000000000000000e+00
	3.299999975421612e+00
	3.299999999973274e+00
	3.299999975448339e+00
	3.299999975421612e+00
	3.300000000000000e+00
	3.299999975372961e+00
	6.656768008089960e-09
	6.598542067852719e-09
	2.911297877801496e-11
	8.299269787329034e-12
	-8.299457805718322e-12
14		7.280000000000000e-11
	6.627654668994460e-09
	3.300000000000000e+00
	0.000000000000000e+00
	3.299999975421512e+00
	3.299999999973274e+00
	3.299999975448238e+00
	3.299999975421512e+00
	3.300000000000000e+00
	3.299999975372860e+00
	6.656767643823531e-09
	6.598541694165389e-09
	2.911296618630808e-11
	8.299353021695493e-12
	-8.298562103408404e-12
15		8.280000000000000e-11
	6.627654889606873e-09
	3.300000000000000e+00
	0.000000000000000e+00
	3.299999975421580e+00
	3.299999999973274e+00
	3.299999975448306e+00
	3.299999975421580e+00
	3.300000000000000e+00
	3.299999975372929e+00
	6.656767860754249e-09
	6.598541918459497e-09
	2.911297873045019e-11
	8.299334375230340e-12
	-8.299413081317935e-12
16		9.280000000000001e-11
	6.627655061554585e-09
	3.300000000000000e+00
	0.000000000000000e+00
	3.299999975421578e+00
	3.299999999973274e+00
	3.299999975448304e+00
	3.299999975421578e+00
	3.300000000000000e+00
	3.299999975372927e+00
	6.656768036870863e-09
	6.598542086238307e-09
	2.911296650455675e-11
	8.299325754656437e-12
	-8.298689153887330e-12
17		1.028000000000000e-10
	6.627654835594297e-09
	3.300000000000000e+00
	0.000000000000000e+00
	3.299999975421534e+00
	3.299999999973274e+00
	3.299999975448261e+00
	3.299999975421534e+00
	3.300000000000000e+00
	3.299999975372883e+00
	6.656767806351511e-09
	6.598541864837084e-09
	2.911297856216424e-11
	8.299318226981361e-12
	-8.299138540268592e-12
18		1.128000000000000e-10
	6.627654993686395e-09
	3.300000000000000e+00
	0.000000000000000e+00
	3.299999975421562e+00
	3.299999999973274e+00
	3.299999975448288e+00
	3.299999975421563e+00
	3.300000000000000e+00
	3.299999975372911e+00
	6.656767968634510e-09
	6.598542018738282e-09
	2.911296690892107e-11
	8.299353315550971e-12
	-8.298316053718878e-12
19		1.228000000000000e-10
	6.627654998504632e-09
	3.300000000000000e+00
	0.000000000000000e+00
	3.299999975421589e+00
	3.299999999973274e+00
	3.299999975448315e+00
	3.299999975421589e+00
	3.300000000000000e+00
	3.299999975372938e+00
	6.656767970272308e-09
	6.598542026736956e-09
	2.911297892185914e-11
	8.299318307343348e-12
	-8.299113535961538e-12
20		1.328000000000000e-10
	6.627655014248484e-09
	3.300000000000000e+00
	0.000000000000000e+00
	3.299999975421523e+00
	3.299999999973274e+00
	3.299999975448249e+00
	3.299999975421523e+00
	3.300000000000000e+00
	3.299999975372872e+00
	6.656767989322591e-09
	6.598542039174378e-09
	2.911296730936991e-11
	8.299317910177818e-12
	-8.298722145528920e-12
21		1.428000000000000e-10
	6.627655039276242e-09
	3.300000000000000e+00
	0.000000000000000e+00
	3.299999975421562e+00
	3.299999999973274e+00
	3.299999975448288e+00
	3.299999975421562e+00
	3.300000000000000e+00
	3.299999975372911e+00
	6.656768011296463e-09
	6.598542067256021e-09
	2.911297909077981e-11
	8.299358468685867e-12
	-8.298734242247580e-12
22		1.528000000000000e-10
	6.627655075217890e-09
	3.300000000000000e+00
	0.000000000000000e+00
	3.299999975421569e+00
	3.299999999973274e+00
	3.299999975448296e+00
	3.299999975421569e+00
	3.300000000000000e+00
	3.299999975372918e+00
	6.656768050353836e-09
	6.598542100081946e-09
	2.911296756328858e-11
	8.299306093288235e-12
	-8.298711160796202e-12
23		1.628000000000000e-10
	6.627654774448593e-09
	3.300000000000000e+00
	0.000000000000000e+00
	3.299999975421489e+00
	3.299999999973274e+00
	3.299999975448216e+00
	3.299999975421489e+00
	3.300000000000000e+00
	3.299999975372838e+00
	6.656767745144248e-09
	6.598541803752938e-09
	2.911297799225700e-11
	8.299324248193336e-12
	-8.299153924953410e-12
24		1.728000000000000e-10
	6.627655034446127e-09
	3.300000000000000e+00
	0.000000000000000e+00
	3.299999975421469e+00
	3.299999999973274e+00
	3.299999975448195e+00
	3.299999975421469e+00
	3.300000000000000e+00
	3.299999975372817e+00
	6.656768009329526e-09
	6.598542059562729e-09
	2.911296739436727e-11
	8.299328588931396e-12
	-8.298603829740930e-12
25		1.828000000000000e-10
	6.627654774272348e-09
	3.300000000000000e+00
	0.000000000000000e+00
	3.299999975421534e+00
	3.299999999973274e+00
	3.299999975448261e+00
	3.299999975421534e+00
	3.300000000000000e+00
	3.299999975372883e+00
	6.656767744968284e-09
	6.598541803576413e-09
	2.911297767626865e-11
	8.299357109140742e-12
	-8.298969479862825e-12
26		1.927999999999999e-10
	6.627655156937438e-09
	3.300000000000000e+00
	0.000000000000000e+00
	3.299999975421545e+00
	3.299999999973274e+00
	3.299999975448272e+00
	3.299999975421545e+00
	3.300000000000000e+00
	3.299999975372894e+00
	6.656768132578194e-09
	6.598542181296683e-09
	2.911296821711860e-11
	8.299308448880404e-12
	-8.298720092328712e-12
27		2.027999999999999e-10
	6.627654692728989e-09
	3.300000000000000e+00
	0.000000000000000e+00
	3.299999975421458e+00
	3.299999999973274e+00
	3.299999975448184e+00
	3.299999975421458e+00
	3.300000000000000e+00
	3.299999975372807e+00
	6.656767662919833e-09
	6.598541722538145e-09
	2.911297733842675e-11
	8.299319308250635e-12
	-8.299172972189700e-12
28		2.127999999999999e-10
	6.627654926665177e-09
	3.300000000000000e+00
	0.000000000000000e+00
	3.299999975421400e+00
	3.299999999973274e+00
	3.299999975448126e+00
	3.299999975421400e+00
	3.300000000000000e+00
	3.299999975372749e+00
	6.656767902512897e-09
	6.598541950817458e-09
	2.911296751626048e-11
	8.299319956822359e-12
	-8.298643746913546e-12
29		2.227999999999999e-10
	6.627655106027363e-09
	3.300000000000000e+00
	0.000000000000000e+00
	3.299999975421372e+00
	3.299999999973274e+00
	3.299999975448098e+00
	3.299999975421372e+00
	3.300000000000000e+00
	3.299999975372720e+00
	6.656768076831126e-09
	6.598542135223601e-09
	2.911297837311226e-11
	8.299330710629984e-12
	-8.299069191826186e-12
30		2.327999999999999e-10
	6.627654832245348e-09
	3.300000000000000e+00
	0.000000000000000e+00
	3.299999975421334e+00
	3.299999999973274e+00
	3.299999975448060e+00
	3.299999975421334e+00
	3.300000000000000e+00
	3.299999975372683e+00
	6.656767807767061e-09
	6.598541856723636e-09
	2.911296749450497e-11
	8.299315832743124e-12
	-8.298677176940051e-12
31		2.427999999999999e-10
	6.627654956627709e-09
	3.300000000000000e+00
	0.000000000000000e+00
	3.299999975421370e+00
	3.299999999973274e+00
	3.299999975448097e+00
	3.299999975421370e+00
	3.300000000000000e+00
	3.299999975372719e+00
	6.656767926875478e-09
	6.598541986379941e-09
	2.911297812310919e-11
	8.299359460722983e-12
	-8.299088623789159e-12
32		2.527999999999999e-10
	6.627654974946211e-09
	3.300000000000000e+00
	0.000000000000000e+00
	3.299999975421446e+00
	3.299999999973274e+00
	3.299999975448172e+00
	3.299999975421446e+00
	3.300000000000000e+00
	3.299999975372795e+00
	6.656767951351833e-09
	6.598541998540590e-09
	2.911296808572825e-11
	8.299330974573813e-12
	-8.298612316191098e-12
33		2.628000000000000e-10
	6.627655017608916e-09
	3.300000000000000e+00
	0.000000000000000e+00
	3.299999975421398e+00
	3.299999999973274e+00
	3.299999975448124e+00
	3.299999975421397e+00
	3.300000000000000e+00
	3.299999975372746e+00
	6.656767988235783e-09
	6.598542046982049e-09
	2.911297806050199e-11
	8.299311953462113e-12
	-8.298986100044253e-12
34		2.728000000000000e-10
	6.627654812035803e-09
	3.300000000000000e+00
	0.000000000000000e+00
	3.299999975421322e+00
	3.299999999973274e+00
	3.299999975448048e+00
	3.299999975421322e+00
	3.300000000000000e+00
	3.299999975372670e+00
	6.656767787430963e-09
	6.598541836640644e-09
	2.911296772603305e-11
	8.299320554374669e-12
	-8.298679295533496e-12
35		2.828000000000000e-10
	6.627655017608833e-09
	3.300000000000000e+00
	0.000000000000000e+00
	3.299999975421324e+00
	3.299999999973274e+00
	3.299999975448050e+00
	3.299999975421324e+00
	3.300000000000000e+00
	3.299999975372673e+00
	6.656767988235699e-09
	6.598542046981968e-09
	2.911297806050165e-11
	8.299341704011974e-12
	-8.299125716802593e-12
36		2.928000000000000e-10
	6.627654669335037e-09
	3.300000000000000e+00
	0.000000000000000e+00
	3.299999975421305e+00
	3.299999999973274e+00
	3.299999975448031e+00
	3.299999975421305e+00
	3.300000000000000e+00
	3.299999975372654e+00
	6.656767643846287e-09
	6.598541694823788e-09
	2.911296713481017e-11
	8.299311749250521e-12
	-8.298694243913116e-12
37		3.028000000000000e-10
	6.627655052176121e-09
	3.300000000000000e+00
	0.000000000000000e+00
	3.299999975421332e+00
	3.299999999973274e+00
	3.299999975448059e+00
	3.299999975421332e+00
	3.300000000000000e+00
	3.299999975372681e+00
	6.656768024651778e-09
	6.598542079700465e-09
	2.911297814164089e-11
	8.299359928013462e-12
	-8.299106004898283e-12
38		3.128000000000000e-10
	6.627654878599068e-09
	3.300000000000000e+00
	0.000000000000000e+00
	3.299999975421376e+00
	3.299999999973274e+00
	3.299999975448102e+00
	3.299999975421376e+00
	3.300000000000000e+00
	3.299999975372725e+00
	6.656767852460790e-09
	6.598541904737347e-09
	2.911296700890380e-11
	8.299317885953674e-12
	-8.298656266954992e-12
39		3.228000000000001e-10
	6.627655100092775e-09
	3.300000000000000e+00
	0.000000000000000e+00
	3.299999975421420e+00
	3.299999999973274e+00
	3.299999975448146e+00
	3.299999975421420e+00
	3.300000000000000e+00
	3.299999975372768e+00
	6.656768072809634e-09
	6.598542127375917e-09
	2.911297839565745e-11
	8.299360160629043e-12
	-8.299020215124020e-12
40		3.328000000000001e-10
	6.627654545715376e-09
	3.300000000000000e+00
	0.000000000000000e+00
	3.299999975421534e+00
	3.299999999973274e+00
	3.299999975448261e+00
	3.299999975421535e+00
	3.300000000000000e+00
	3.299999975372883e+00
	6.656767517567391e-09
	6.598541573863364e-09
	2.911296631528363e-11
	8.299344855935560e-12
	-8.298558283086263e-12
41		3.428000000000001e-10
	6.627654951552238e-09
	3.300000000000000e+00
	0.000000000000000e+00
	3.299999975421604e+00
	3.299999999973274e+00
	3.299999975448330e+00
	3.299999975421603e+00
	3.300000000000000e+00
	3.299999975372952e+00
	6.656767925298134e-09
	6.598541977806343e-09
	2.911297803210505e-11
	8.299343224507651e-12
	-8.299084543396292e-12
42		3.528000000000001e-10
	6.627654897503887e-09
	3.300000000000000e+00
	0.000000000000000e+00
	3.299999975421633e+00
	3.299999999973274e+00
	3.299999975448359e+00
	3.299999975421633e+00
	3.300000000000000e+00
	3.299999975372981e+00
	6.656767869590563e-09
	6.598541925417213e-09
	2.911296646461162e-11
	8.299328941133215e-12
	-8.298660598598417e-12
43		3.628000000000001e-10
	6.627655040240518e-09
	3.300000000000000e+00
	0.000000000000000e+00
	3.299999975421660e+00
	3.299999999973274e+00
	3.299999975448387e+00
	3.299999975421660e+00
	3.300000000000000e+00
	3.299999975373009e+00
	6.656768014480162e-09
	6.598542066000876e-09
	2.911297845504235e-11
	8.299342648487967e-12
	-8.299059678389110e-12
44		3.728000000000001e-10
	6.627654809426256e-09
	3.300000000000000e+00
	0.000000000000000e+00
	3.299999975421687e+00
	3.299999999973274e+00
	3.299999975448413e+00
	3.299999975421687e+00
	3.300000000000000e+00
	3.299999975373035e+00
	6.656767781018215e-09
	6.598541837834297e-09
	2.911296710050443e-11
	8.299329191467395e-12
	-8.298635588371861e-12
45		3.828000000000002e-10
	6.627654958697309e-09
	3.300000000000000e+00
	0.000000000000000e+00
	3.299999975421746e+00
	3.299999999973274e+00
	3.299999975448472e+00
	3.299999975421746e+00
	3.300000000000000e+00
	3.299999975373094e+00
	6.656767932431863e-09
	6.598541984962758e-09
	2.911297811720107e-11
	8.299354664887927e-12
	-8.299452918484015e-12
46		3.928000000000002e-10
	6.627654952126913e-09
	3.300000000000000e+00
	0.000000000000000e+00
	3.299999975421593e+00
	3.299999999973274e+00
	3.299999975448319e+00
	3.299999975421593e+00
	3.300000000000000e+00
	3.299999975372942e+00
	6.656767924602781e-09
	6.598541979651046e-09
	2.911296769172686e-11
	8.299248617568934e-12
	-8.298619047146793e-12
47		4.028000000000002e-10
	6.627655081011970e-09
	3.300000000000000e+00
	0.000000000000000e+00
	3.299999975421466e+00
	3.299999999973274e+00
	3.299999975448192e+00
	3.299999975421466e+00
	3.300000000000000e+00
	3.299999975372814e+00
	6.656768055504158e-09
	6.598542106519783e-09
	2.911297862396236e-11
	8.299363836080511e-12
	-8.298996098100928e-12
48		4.128000000000002e-10
	6.627654605567805e-09
	3.300000000000000e+00
	0.000000000000000e+00
	3.299999975421463e+00
	3.299999999973274e+00
	3.299999975448189e+00
	3.299999975421463e+00
	3.300000000000000e+00
	3.299999975372812e+00
	6.656767575897035e-09
	6.598541635238575e-09
	2.911296625589944e-11
	8.299296738058276e-12
	-8.298635540855411e-12
49		4.228000000000002e-10
	6.627654891699607e-09
	3.300000000000000e+00
	0.000000000000000e+00
	3.299999975421477e+00
	3.299999999973274e+00
	3.299999975448204e+00
	3.299999975421477e+00
	3.300000000000000e+00
	3.299999975372826e+00
	6.656767866968285e-09
	6.598541916430930e-09
	2.911297809148840e-11
	8.299370705962171e-12
	-8.298983952304683e-12
50		4.328000000000003e-10
	6.627654916761033e-09
	3.300000000000000e+00
	0.000000000000000e+00
	3.299999975421623e+00
	3.299999999973274e+00
	3.299999975448349e+00
	3.299999975421623e+00
	3.300000000000000e+00
	3.299999975372971e+00
	6.656767887072100e-09
	6.598541946449967e-09
	2.911296655229545e-11
	8.299345766063132e-12
	-8.298294098397492e-12
51		4.428000000000003e-10
	6.627654735758272e-09
	3.300000000000000e+00
	0.000000000000000e+00
	3.299999975421779e+00
	3.299999999973274e+00
	3.299999975448505e+00
	3.299999975421779e+00
	3.300000000000000e+00
	3.299999975373127e+00
	6.656767710005425e-09
	6.598541761511119e-09
	2.911297750090189e-11
	8.299374187554995e-12
	-8.299197083657118e-12
52		4.528000000000003e-10
	6.627654991593760e-09
	3.300000000000000e+00
	0.000000000000000e+00
	3.299999975421772e+00
	3.299999999973274e+00
	3.299999975448498e+00
	3.299999975421772e+00
	3.300000000000000e+00
	3.299999975373121e+00
	6.656767962420574e-09
	6.598542020766948e-09
	2.911296754788326e-11
	8.299284839971857e-12
	-8.298726054398831e-12
53		4.628000000000003e-10
	6.627654674600801e-09
	3.300000000000000e+00
	0.000000000000000e+00
	3.299999975421767e+00
	3.299999999973274e+00
	3.299999975448493e+00
	3.299999975421767e+00
	3.300000000000000e+00
	3.299999975373115e+00
	6.656767648469137e-09
	6.598541700732466e-09
	2.911297724752066e-11
	8.299373648605493e-12
	-8.298758184299230e-12
54		4.728000000000003e-10
	6.627654679778487e-09
	3.300000000000000e+00
	0.000000000000000e+00
	3.299999975421895e+00
	3.299999999973275e+00
	3.299999975448622e+00
	3.299999975421895e+00
	3.300000000000000e+00
	3.299999975373244e+00
	6.656767650307175e-09
	6.598541709249800e-09
	2.911296650918468e-11
	8.299336535094596e-12
	-8.298533592380227e-12
55		4.828000000000002e-10
	6.627654884812894e-09
	3.300000000000000e+00
	0.000000000000000e+00
	3.299999975421735e+00
	3.299999999973274e+00
